date Tue Feb 28 01:20:53 am 2012
base hex  timestamps absolute
no internal events logged
// version 7.2.0
   0.001848 2  63              Rx   d 8 00 00 00 00 E4 3A 00 00
   0.001917 2  1               Rx   d 2 05 03
   0.002039 2  64              Rx   d 8 CD 0E 00 00 F8 3F 00 00
   0.002108 2  1               Rx   d 2 06 03
   0.002227 2  65              Rx   d 8 BA 3A 00 00 5A 7D 00 00
   0.002297 2  1               Rx   d 2 07 03
   0.002372 1  1               Rx   d 2 08 03
   0.002415 2  66              Rx   d 8 EB D7 FF FF 7B 59 00 00
   0.002445 1  1               Rx   d 2 09 03
   0.002535 2  67              Rx   d 8 30 26 00 00 A4 B4 FF FF
   0.002567 1  68              Rx   d 8 F9 FE FF FF F5 C9 FF FF
   0.002635 1  1               Rx   d 2 0A 03
   0.002757 1  69              Rx   d 8 BF FF FF FF D7 03 00 00
   0.002826 1  1               Rx   d 2 0B 03
   0.002945 1  6A              Rx   d 8 0A 51 00 00 AB 21 00 00
   0.003013 1  1               Rx   d 2 20 03
   0.003136 1  6B              Rx   d 8 6B FF FF FF 94 06 00 00
   0.003203 1  1               Rx   d 2 21 03
   0.003310 1  80              Rx   d 6 0C 00 FF FF 02 00
   0.003379 1  1               Rx   d 2 22 03
   0.003483 1  81              Rx   d 6 00 00 05 00 00 00
   0.003550 1  1               Rx   d 2 23 03
   0.003623 1  1               Rx   d 2 24 03
   0.003747 1  83              Rx   d 8 21 ED FF FF 00 00 00 00
   0.003814 1  1               Rx   d 2 25 03
   0.003915 1  84              Rx   d 6 94 00 92 01 DE FE
   0.011076 2  1               Rx   d 2 00 03
   0.011149 2  1               Rx   d 2 01 03
   0.011270 2  60              Rx   d 8 61 F2 FF FF CE 39 00 00
   0.011339 2  1               Rx   d 2 02 03
   0.011458 2  61              Rx   d 8 55 1F 00 00 4A EE FF FF
   0.011527 2  1               Rx   d 2 03 03
   0.011648 2  62              Rx   d 8 B4 5B 00 00 00 00 00 00
   0.011718 2  1               Rx   d 2 04 03
   0.011840 2  63              Rx   d 8 00 00 00 00 E4 3A 00 00
   0.011909 2  1               Rx   d 2 05 03
   0.012031 2  64              Rx   d 8 CD 0E 00 00 F8 3F 00 00
   0.012099 2  1               Rx   d 2 06 03
   0.012218 2  65              Rx   d 8 BA 3A 00 00 5A 7D 00 00
   0.012288 2  1               Rx   d 2 07 03
   0.012364 1  1               Rx   d 2 08 03
   0.012406 2  66              Rx   d 8 EB D7 FF FF 7B 59 00 00
   0.012489 1  68              Rx   d 8 F9 FE FF FF F5 C9 FF FF
   0.012527 2  67              Rx   d 8 30 26 00 00 A4 B4 FF FF
   0.012557 1  1               Rx   d 2 09 03
   0.012683 1  69              Rx   d 8 BF FF FF FF D7 03 00 00
   0.012751 1  1               Rx   d 2 0A 03
   0.012873 1  6A              Rx   d 8 0A 51 00 00 AB 21 00 00
   0.012942 1  1               Rx   d 2 0B 03
   0.013069 1  6B              Rx   d 8 6B FF FF FF 94 06 00 00
   0.013138 1  1               Rx   d 2 20 03
   0.013209 1  1               Rx   d 2 21 03
   0.013316 1  80              Rx   d 6 0C 00 FF FF 02 00
   0.013384 1  1               Rx   d 2 22 03
   0.013488 1  81              Rx   d 6 00 00 05 00 00 00
   0.013555 1  1               Rx   d 2 23 03
   0.013627 1  1               Rx   d 2 24 03
   0.013751 1  83              Rx   d 8 21 ED FF FF 00 00 00 00
   0.013819 1  1               Rx   d 2 25 03
   0.013920 1  84              Rx   d 6 94 00 92 01 DE FE
   0.021072 2  1               Rx   d 2 00 03
   0.021144 2  1               Rx   d 2 01 03
   0.021265 2  60              Rx   d 8 61 F2 FF FF CE 39 00 00
   0.021333 2  1               Rx   d 2 02 03
   0.021452 2  61              Rx   d 8 55 1F 00 00 4A EE FF FF
   0.021521 2  1               Rx   d 2 03 03
   0.021642 2  62              Rx   d 8 B4 5B 00 00 00 00 00 00
   0.021712 2  1               Rx   d 2 04 03
   0.021835 2  63              Rx   d 8 00 00 00 00 E4 3A 00 00
   0.021904 2  1               Rx   d 2 05 03
   0.022026 2  64              Rx   d 8 CD 0E 00 00 F8 3F 00 00
   0.022094 2  1               Rx   d 2 06 03
   0.022213 2  65              Rx   d 8 BA 3A 00 00 5A 7D 00 00
   0.022283 2  1               Rx   d 2 07 03
   0.022359 1  1               Rx   d 2 08 03
   0.022401 2  66              Rx   d 8 EB D7 FF FF 7B 59 00 00
   0.022431 1  1               Rx   d 2 09 03
   0.022521 2  67              Rx   d 8 30 26 00 00 A4 B4 FF FF
   0.022553 1  68              Rx   d 8 F9 FE FF FF F5 C9 FF FF
   0.022621 1  1               Rx   d 2 0A 03
   0.022743 1  69              Rx   d 8 BF FF FF FF D7 03 00 00
   0.022812 1  1               Rx   d 2 0B 03
   0.022931 1  6A              Rx   d 8 0A 51 00 00 AB 21 00 00
   0.022999 1  1               Rx   d 2 20 03
   0.023122 1  6B              Rx   d 8 6B FF FF FF 94 06 00 00
   0.023189 1  1               Rx   d 2 21 03
   0.023296 1  80              Rx   d 6 0C 00 FF FF 02 00
   0.023365 1  1               Rx   d 2 22 03
   0.023469 1  81              Rx   d 6 00 00 05 00 00 00
   0.023536 1  1               Rx   d 2 23 03
   0.023608 1  1               Rx   d 2 24 03
   0.023732 1  83              Rx   d 8 21 ED FF FF 00 00 00 00
   0.023799 1  1               Rx   d 2 25 03
   0.023900 1  84              Rx   d 6 94 00 92 01 DE FE
   0.031056 2  1               Rx   d 2 00 03
   0.031180 2  60              Rx   d 8 61 F2 FF FF CE 39 00 00
   0.031249 2  1               Rx   d 2 01 03
   0.031322 2  1               Rx   d 2 02 03
   0.031441 2  61              Rx   d 8 55 1F 00 00 4A EE FF FF
   0.031510 2  1               Rx   d 2 03 03
   0.031631 2  62              Rx   d 8 B4 5B 00 00 00 00 00 00
   0.031701 2  1               Rx   d 2 04 03
   0.031823 2  63              Rx   d 8 00 00 00 00 E4 3A 00 00
   0.031892 2  1               Rx   d 2 05 03
   0.032014 2  64              Rx   d 8 CD 0E 00 00 F8 3F 00 00
   0.032082 2  1               Rx   d 2 06 03
   0.032201 2  65              Rx   d 8 BA 3A 00 00 5A 7D 00 00
   0.032272 2  1               Rx   d 2 07 03
   0.032347 1  1               Rx   d 2 08 03
   0.032390 2  66              Rx   d 8 EB D7 FF FF 7B 59 00 00
   0.032420 1  1               Rx   d 2 09 03
   0.032510 2  67              Rx   d 8 30 26 00 00 A4 B4 FF FF
   0.032542 1  68              Rx   d 8 F9 FE FF FF F5 C9 FF FF
   0.032611 1  1               Rx   d 2 0A 03
   0.032733 1  69              Rx   d 8 BF FF FF FF D7 03 00 00
   0.032802 1  1               Rx   d 2 0B 03
   0.032921 1  6A              Rx   d 8 0A 51 00 00 AB 21 00 00
   0.032989 1  1               Rx   d 2 20 03
   0.033112 1  6B              Rx   d 8 6B FF FF FF 94 06 00 00
   0.033179 1  1               Rx   d 2 21 03
   0.033286 1  80              Rx   d 6 0C 00 FF FF 02 00
   0.033354 1  1               Rx   d 2 22 03
   0.033458 1  81              Rx   d 6 00 00 05 00 00 00
   0.033525 1  1               Rx   d 2 23 03
   0.033653 1  83              Rx   d 8 21 ED FF FF 00 00 00 00
   0.033721 1  1               Rx   d 2 24 03
   0.033795 1  1               Rx   d 2 25 03
   0.033896 1  84              Rx   d 6 94 00 92 01 DE FE
   0.041045 2  1               Rx   d 2 00 03
   0.041117 2  1               Rx   d 2 01 03
   0.041238 2  60              Rx   d 8 61 F2 FF FF CE 39 00 00
   0.041306 2  1               Rx   d 2 02 03
   0.041425 2  61              Rx   d 8 55 1F 00 00 4A EE FF FF
   0.041494 2  1               Rx   d 2 03 03
   0.041615 2  62              Rx   d 8 B4 5B 00 00 00 00 00 00
   0.041686 2  1               Rx   d 2 04 03
   0.041808 2  63              Rx   d 8 00 00 00 00 E4 3A 00 00
   0.041877 2  1               Rx   d 2 05 03
   0.041999 2  64              Rx   d 8 CD 0E 00 00 F8 3F 00 00
   0.042067 2  1               Rx   d 2 06 03
   0.042186 2  65              Rx   d 8 BA 3A 00 00 5A 7D 00 00
   0.042256 2  1               Rx   d 2 07 03
   0.042332 1  1               Rx   d 2 08 03
   0.042374 2  66              Rx   d 8 EB D7 FF FF 7B 59 00 00
   0.042457 1  68              Rx   d 8 F9 FE FF FF F5 C9 FF FF
   0.042494 2  67              Rx   d 8 30 26 00 00 A4 B4 FF FF
   0.042525 1  1               Rx   d 2 09 03
   0.042597 1  1               Rx   d 2 0A 03
   0.042719 1  69              Rx   d 8 BF FF FF FF D7 03 00 00
   0.042788 1  1               Rx   d 2 0B 03
   0.042907 1  6A              Rx   d 8 0A 51 00 00 AB 21 00 00
   0.042975 1  1               Rx   d 2 20 03
   0.043098 1  6B              Rx   d 8 6B FF FF FF 94 06 00 00
   0.043165 1  1               Rx   d 2 21 03
   0.043273 1  80              Rx   d 6 0C 00 FF FF 02 00
   0.043341 1  1               Rx   d 2 22 03
   0.043445 1  81              Rx   d 6 00 00 05 00 00 00
   0.043512 1  1               Rx   d 2 23 03
   0.043584 1  1               Rx   d 2 24 03
   0.043708 1  83              Rx   d 8 21 ED FF FF 00 00 00 00
   0.043775 1  1               Rx   d 2 25 03
   0.043876 1  84              Rx   d 6 94 00 92 01 DE FE
   0.051033 2  1               Rx   d 2 00 03
   0.051107 2  1               Rx   d 2 01 03
   0.051228 2  60              Rx   d 8 61 F2 FF FF CE 39 00 00
   0.051296 2  1               Rx   d 2 02 03
   0.051415 2  61              Rx   d 8 55 1F 00 00 4A EE FF FF
   0.051484 2  1               Rx   d 2 03 03
   0.051605 2  62              Rx   d 8 B4 5B 00 00 00 00 00 00
   0.051675 2  1               Rx   d 2 04 03
   0.051797 2  63              Rx   d 8 00 00 00 00 E4 3A 00 00
   0.051866 2  1               Rx   d 2 05 03
   0.051988 2  64              Rx   d 8 CD 0E 00 00 F8 3F 00 00
   0.052057 2  1               Rx   d 2 06 03
   0.052176 2  65              Rx   d 8 BA 3A 00 00 5A 7D 00 00
   0.052246 2  1               Rx   d 2 07 03
   0.052321 1  1               Rx   d 2 08 03
   0.052364 2  66              Rx   d 8 EB D7 FF FF 7B 59 00 00
   0.052446 1  68              Rx   d 8 F9 FE FF FF F5 C9 FF FF
   0.052484 2  67              Rx   d 8 30 26 00 00 A4 B4 FF FF
   0.052514 1  1               Rx   d 2 09 03
   0.052586 1  1               Rx   d 2 0A 03
   0.052708 1  69              Rx   d 8 BF FF FF FF D7 03 00 00
   0.052778 1  1               Rx   d 2 0B 03
   0.052897 1  6A              Rx   d 8 0A 51 00 00 AB 21 00 00
   0.052965 1  1               Rx   d 2 20 03
   0.053088 1  6B              Rx   d 8 6B FF FF FF 94 06 00 00
   0.053155 1  1               Rx   d 2 21 03
   0.053262 1  80              Rx   d 6 0C 00 FF FF 02 00
   0.053330 1  1               Rx   d 2 22 03
   0.053434 1  81              Rx   d 6 00 00 05 00 00 00
   0.053501 1  1               Rx   d 2 23 03
   0.053627 1  83              Rx   d 8 20 ED FF FF 00 00 00 00
   0.053695 1  1               Rx   d 2 24 03
   0.053768 1  1               Rx   d 2 25 03
   0.053869 1  84              Rx   d 6 94 00 92 01 DE FE
   0.061025 2  1               Rx   d 2 00 03
   0.061097 2  1               Rx   d 2 01 03
   0.061218 2  60              Rx   d 8 61 F2 FF FF CE 39 00 00
   0.061287 2  1               Rx   d 2 02 03
   0.061406 2  61              Rx   d 8 55 1F 00 00 4A EE FF FF
   0.061475 2  1               Rx   d 2 03 03
   0.061596 2  62              Rx   d 8 B4 5B 00 00 00 00 00 00
   0.061666 2  1               Rx   d 2 04 03
   0.061788 2  63              Rx   d 8 00 00 00 00 E4 3A 00 00
   0.061857 2  1               Rx   d 2 05 03
   0.061979 2  64              Rx   d 8 CD 0E 00 00 F8 3F 00 00
   0.062047 2  1               Rx   d 2 06 03
   0.062166 2  65              Rx   d 8 BA 3A 00 00 5A 7D 00 00
   0.062236 2  1               Rx   d 2 07 03
   0.062313 1  1               Rx   d 2 08 03
   0.062354 2  66              Rx   d 8 EB D7 FF FF 7B 59 00 00
   0.062385 1  1               Rx   d 2 09 03
   0.062475 2  67              Rx   d 8 30 26 00 00 A4 B4 FF FF
   0.062507 1  68              Rx   d 8 F9 FE FF FF F5 C9 FF FF
   0.062575 1  1               Rx   d 2 0A 03
   0.062697 1  69              Rx   d 8 BF FF FF FF D7 03 00 00
   0.062766 1  1               Rx   d 2 0B 03
   0.062885 1  6A              Rx   d 8 0A 51 00 00 AB 21 00 00
   0.062953 1  1               Rx   d 2 20 03
   0.063076 1  6B              Rx   d 8 6B FF FF FF 94 06 00 00
   0.063144 1  1               Rx   d 2 21 03
   0.063251 1  80              Rx   d 6 0C 00 FF FF 02 00
   0.063319 1  1               Rx   d 2 22 03
   0.063423 1  81              Rx   d 6 00 00 05 00 00 00
   0.063490 1  1               Rx   d 2 23 03
   0.063617 1  83              Rx   d 8 20 ED FF FF 00 00 00 00
   0.063685 1  1               Rx   d 2 24 03
   0.063790 1  84              Rx   d 6 94 00 92 01 DE FE
   0.063857 1  1               Rx   d 2 25 03
   0.071014 2  1               Rx   d 2 00 03
   0.071087 2  1               Rx   d 2 01 03
   0.071208 2  60              Rx   d 8 61 F2 FF FF CE 39 00 00
   0.071276 2  1               Rx   d 2 02 03
   0.071395 2  61              Rx   d 8 55 1F 00 00 4A EE FF FF
   0.071464 2  1               Rx   d 2 03 03
   0.071585 2  62              Rx   d 8 B4 5B 00 00 00 00 00 00
   0.071655 2  1               Rx   d 2 04 03
   0.071777 2  63              Rx   d 8 00 00 00 00 E4 3A 00 00
   0.071847 2  1               Rx   d 2 05 03
   0.071969 2  64              Rx   d 8 CD 0E 00 00 F8 3F 00 00
   0.072037 2  1               Rx   d 2 06 03
   0.072156 2  65              Rx   d 8 BA 3A 00 00 5A 7D 00 00
   0.072226 2  1               Rx   d 2 07 03
   0.072302 1  1               Rx   d 2 08 03
   0.072344 2  66              Rx   d 8 EB D7 FF FF 7B 59 00 00
   0.072375 1  1               Rx   d 2 09 03
   0.072464 2  67              Rx   d 8 30 26 00 00 A4 B4 FF FF
   0.072497 1  68              Rx   d 8 F9 FE FF FF F5 C9 FF FF
   0.072565 1  1               Rx   d 2 0A 03
   0.072687 1  69              Rx   d 8 BF FF FF FF D7 03 00 00
   0.072756 1  1               Rx   d 2 0B 03
   0.072875 1  6A              Rx   d 8 0A 51 00 00 AB 21 00 00
   0.072943 1  1               Rx   d 2 20 03
   0.073066 1  6B              Rx   d 8 6B FF FF FF 94 06 00 00
   0.073133 1  1               Rx   d 2 21 03
   0.073240 1  80              Rx   d 6 0C 00 FF FF 02 00
   0.073309 1  1               Rx   d 2 22 03
   0.073413 1  81              Rx   d 6 00 00 05 00 00 00
   0.073480 1  1               Rx   d 2 23 03
   0.073552 1  1               Rx   d 2 24 03
   0.073675 1  83              Rx   d 8 20 ED FF FF 00 00 00 00
   0.073742 1  1               Rx   d 2 25 03
   0.073843 1  84              Rx   d 6 94 00 92 01 DE FE
   0.081004 2  1               Rx   d 2 00 03
   0.081077 2  1               Rx   d 2 01 03
   0.081198 2  60              Rx   d 8 61 F2 FF FF CE 39 00 00
   0.081266 2  1               Rx   d 2 02 03
   0.081385 2  61              Rx   d 8 55 1F 00 00 4A EE FF FF
   0.081454 2  1               Rx   d 2 03 03
   0.081575 2  62              Rx   d 8 B4 5B 00 00 00 00 00 00
   0.081645 2  1               Rx   d 2 04 03
   0.081767 2  63              Rx   d 8 00 00 00 00 E4 3A 00 00
   0.081836 2  1               Rx   d 2 05 03
   0.081958 2  64              Rx   d 8 CD 0E 00 00 F8 3F 00 00
   0.082026 2  1               Rx   d 2 06 03
   0.082145 2  65              Rx   d 8 BA 3A 00 00 5A 7D 00 00
   0.082216 2  1               Rx   d 2 07 03
   0.082292 1  1               Rx   d 2 08 03
   0.082334 2  66              Rx   d 8 EB D7 FF FF 7B 59 00 00
   0.082364 1  1               Rx   d 2 09 03
   0.082454 2  67              Rx   d 8 30 26 00 00 A4 B4 FF FF
   0.082486 1  68              Rx   d 8 F9 FE FF FF F5 C9 FF FF
   0.082554 1  1               Rx   d 2 0A 03
   0.082676 1  69              Rx   d 8 BF FF FF FF D7 03 00 00
   0.082746 1  1               Rx   d 2 0B 03
   0.082865 1  6A              Rx   d 8 0A 51 00 00 AB 21 00 00
   0.082933 1  1               Rx   d 2 20 03
   0.083056 1  6B              Rx   d 8 6B FF FF FF 94 06 00 00
   0.083123 1  1               Rx   d 2 21 03
   0.083230 1  80              Rx   d 6 0C 00 FF FF 02 00
   0.083298 1  1               Rx   d 2 22 03
   0.083402 1  81              Rx   d 6 00 00 05 00 00 00
   0.083469 1  1               Rx   d 2 23 03
   0.083596 1  83              Rx   d 8 20 ED FF FF 00 00 00 00
   0.083664 1  1               Rx   d 2 24 03
   0.083738 1  1               Rx   d 2 25 03
   0.083839 1  84              Rx   d 6 94 00 92 01 DE FE
   0.090994 2  1               Rx   d 2 00 03
   0.091118 2  60              Rx   d 8 61 F2 FF FF CE 39 00 00
   0.091186 2  1               Rx   d 2 01 03
   0.091309 2  61              Rx   d 8 55 1F 00 00 4A EE FF FF
   0.091377 2  1               Rx   d 2 02 03
   0.091452 2  1               Rx   d 2 03 03
   0.091573 2  62              Rx   d 8 B4 5B 00 00 00 00 00 00
   0.091643 2  1               Rx   d 2 04 03
   0.091765 2  63              Rx   d 8 00 00 00 00 E4 3A 00 00
   0.091834 2  1               Rx   d 2 05 03
   0.091956 2  64              Rx   d 8 CD 0E 00 00 F8 3F 00 00
   0.092024 2  1               Rx   d 2 06 03
   0.092143 2  65              Rx   d 8 BA 3A 00 00 5A 7D 00 00
   0.092213 2  1               Rx   d 2 07 03
   0.092289 1  1               Rx   d 2 08 03
   0.092331 2  66              Rx   d 8 EB D7 FF FF 7B 59 00 00
   0.092415 1  68              Rx   d 8 F9 FE FF FF F5 C9 FF FF
   0.092451 2  67              Rx   d 8 30 26 00 00 A4 B4 FF FF
   0.092483 1  1               Rx   d 2 09 03
   0.092609 1  69              Rx   d 8 BF FF FF FF D7 03 00 00
   0.092677 1  1               Rx   d 2 0A 03
   0.092751 1  1               Rx   d 2 0B 03
   0.092870 1  6A              Rx   d 8 0A 51 00 00 AB 21 00 00
   0.092938 1  1               Rx   d 2 20 03
   0.093061 1  6B              Rx   d 8 6B FF FF FF 94 06 00 00
   0.093128 1  1               Rx   d 2 21 03
   0.093235 1  80              Rx   d 6 0C 00 FF FF 02 00
   0.093303 1  1               Rx   d 2 22 03
   0.093407 1  81              Rx   d 6 00 00 05 00 00 00
   0.093475 1  1               Rx   d 2 23 03
   0.093547 1  1               Rx   d 2 24 03
   0.093670 1  83              Rx   d 8 20 ED FF FF 00 00 00 00
   0.093737 1  1               Rx   d 2 25 03
   0.093838 1  84              Rx   d 6 94 00 92 01 DE FE
   0.100984 2  1               Rx   d 2 00 03
   0.101108 2  60              Rx   d 8 61 F2 FF FF CE 39 00 00
   0.101176 2  1               Rx   d 2 01 03
   0.101299 2  61              Rx   d 8 55 1F 00 00 4A EE FF FF
   0.101367 2  1               Rx   d 2 02 03
   0.101440 2  1               Rx   d 2 03 03
   0.101561 2  62              Rx   d 8 B4 5B 00 00 00 00 00 00
   0.101632 2  1               Rx   d 2 04 03
   0.101754 2  63              Rx   d 8 00 00 00 00 E4 3A 00 00
   0.101823 2  1               Rx   d 2 05 03
   0.101945 2  64              Rx   d 8 CD 0E 00 00 F8 3F 00 00
   0.102013 2  1               Rx   d 2 06 03
   0.102132 2  65              Rx   d 8 BA 3A 00 00 5A 7D 00 00
   0.102202 2  1               Rx   d 2 07 03
   0.102277 1  1               Rx   d 2 08 03
   0.102320 2  66              Rx   d 8 EB D7 FF FF 7B 59 00 00
   0.102350 1  1               Rx   d 2 09 03
   0.102440 2  67              Rx   d 8 30 26 00 00 A4 B4 FF FF
   0.102472 1  68              Rx   d 8 F9 FE FF FF F5 C9 FF FF
   0.102540 1  1               Rx   d 2 0A 03
   0.102662 1  69              Rx   d 8 BF FF FF FF D7 03 00 00
   0.102731 1  1               Rx   d 2 0B 03
   0.102850 1  6A              Rx   d 8 0A 51 00 00 AB 21 00 00
   0.102918 1  1               Rx   d 2 20 03
   0.103042 1  6B              Rx   d 8 6B FF FF FF 94 06 00 00
   0.103109 1  1               Rx   d 2 21 03
   0.103216 1  80              Rx   d 6 0C 00 FF FF 02 00
   0.103284 1  1               Rx   d 2 22 03
   0.103388 1  81              Rx   d 6 00 00 05 00 00 00
   0.103455 1  1               Rx   d 2 23 03
   0.103581 1  83              Rx   d 8 20 ED FF FF 00 00 00 00
   0.103649 1  1               Rx   d 2 24 03
   0.103753 1  84              Rx   d 6 94 00 92 01 DE FE
   0.103820 1  1               Rx   d 2 25 03
   0.110975 2  1               Rx   d 2 00 03
   0.111048 2  1               Rx   d 2 01 03
   0.111169 2  60              Rx   d 8 61 F2 FF FF CE 39 00 00
   0.111238 2  1               Rx   d 2 02 03
   0.111357 2  61              Rx   d 8 55 1F 00 00 4A EE FF FF
   0.111426 2  1               Rx   d 2 03 03
   0.111547 2  62              Rx   d 8 B4 5B 00 00 00 00 00 00
   0.111617 2  1               Rx   d 2 04 03
   0.111739 2  63              Rx   d 8 00 00 00 00 E4 3A 00 00
   0.111808 2  1               Rx   d 2 05 03
   0.111930 2  64              Rx   d 8 CD 0E 00 00 F8 3F 00 00
   0.111998 2  1               Rx   d 2 06 03
   0.112117 2  65              Rx   d 8 BA 3A 00 00 5A 7D 00 00
   0.112188 2  1               Rx   d 2 07 03
   0.112263 1  1               Rx   d 2 08 03
   0.112306 2  66              Rx   d 8 EB D7 FF FF 7B 59 00 00
   0.112336 1  1               Rx   d 2 09 03
   0.112426 2  67              Rx   d 8 30 26 00 00 A4 B4 FF FF
   0.112458 1  68              Rx   d 8 F9 FE FF FF F5 C9 FF FF
   0.112526 1  1               Rx   d 2 0A 03
   0.112648 1  69              Rx   d 8 BF FF FF FF D7 03 00 00
   0.112717 1  1               Rx   d 2 0B 03
   0.112836 1  6A              Rx   d 8 0A 51 00 00 AB 21 00 00
   0.112904 1  1               Rx   d 2 20 03
   0.113027 1  6B              Rx   d 8 6B FF FF FF 94 06 00 00
   0.113094 1  1               Rx   d 2 21 03
   0.113201 1  80              Rx   d 6 0C 00 FF FF 02 00
   0.113269 1  1               Rx   d 2 22 03
   0.113373 1  81              Rx   d 6 00 00 05 00 00 00
   0.113440 1  1               Rx   d 2 23 03
   0.113568 1  83              Rx   d 8 20 ED FF FF 00 00 00 00
   0.113636 1  1               Rx   d 2 24 03
   0.113708 1  1               Rx   d 2 25 03
   0.113809 1  84              Rx   d 6 94 00 92 01 DE FE
   0.120964 2  1               Rx   d 2 00 03
   0.121088 2  60              Rx   d 8 61 F2 FF FF CE 39 00 00
   0.121156 2  1               Rx   d 2 01 03
   0.121279 2  61              Rx   d 8 55 1F 00 00 4A EE FF FF
   0.121347 2  1               Rx   d 2 02 03
   0.121421 2  1               Rx   d 2 03 03
   0.121543 2  62              Rx   d 8 B4 5B 00 00 00 00 00 00
   0.121613 2  1               Rx   d 2 04 03
   0.121735 2  63              Rx   d 8 00 00 00 00 E4 3A 00 00
   0.121804 2  1               Rx   d 2 05 03
   0.121926 2  64              Rx   d 8 CD 0E 00 00 F8 3F 00 00
   0.121994 2  1               Rx   d 2 06 03
   0.122113 2  65              Rx   d 8 BA 3A 00 00 5A 7D 00 00
   0.122183 2  1               Rx   d 2 07 03
   0.122259 1  1               Rx   d 2 08 03
   0.122301 2  66              Rx   d 8 EB D7 FF FF 7B 59 00 00
   0.122384 1  68              Rx   d 8 F9 FE FF FF F5 C9 FF FF
   0.122421 2  67              Rx   d 8 30 26 00 00 A4 B4 FF FF
   0.122452 1  1               Rx   d 2 09 03
   0.122524 1  1               Rx   d 2 0A 03
   0.122646 1  69              Rx   d 8 BF FF FF FF D7 03 00 00
   0.122715 1  1               Rx   d 2 0B 03
   0.122835 1  6A              Rx   d 8 0A 51 00 00 AB 21 00 00
   0.122903 1  1               Rx   d 2 20 03
   0.123026 1  6B              Rx   d 8 6B FF FF FF 94 06 00 00
   0.123093 1  1               Rx   d 2 21 03
   0.123200 1  80              Rx   d 6 0C 00 FF FF 02 00
   0.123268 1  1               Rx   d 2 22 03
   0.123372 1  81              Rx   d 6 00 00 05 00 00 00
   0.123439 1  1               Rx   d 2 23 03
   0.123566 1  83              Rx   d 8 20 ED FF FF 00 00 00 00
   0.123634 1  1               Rx   d 2 24 03
   0.123738 1  84              Rx   d 6 94 00 92 01 DE FE
   0.123806 1  1               Rx   d 2 25 03
   0.130953 2  1               Rx   d 2 00 03
   0.131078 2  60              Rx   d 8 61 F2 FF FF CE 39 00 00
   0.131146 2  1               Rx   d 2 01 03
   0.131218 2  1               Rx   d 2 02 03
   0.131337 2  61              Rx   d 8 55 1F 00 00 4A EE FF FF
   0.131406 2  1               Rx   d 2 03 03
   0.131527 2  62              Rx   d 8 B4 5B 00 00 00 00 00 00
   0.131597 2  1               Rx   d 2 04 03
   0.131719 2  63              Rx   d 8 00 00 00 00 E4 3A 00 00
   0.131788 2  1               Rx   d 2 05 03
   0.131911 2  64              Rx   d 8 CD 0E 00 00 F8 3F 00 00
   0.131979 2  1               Rx   d 2 06 03
   0.132098 2  65              Rx   d 8 BA 3A 00 00 5A 7D 00 00
   0.132168 2  1               Rx   d 2 07 03
   0.132244 1  1               Rx   d 2 08 03
   0.132286 2  66              Rx   d 8 EB D7 FF FF 7B 59 00 00
   0.132370 1  68              Rx   d 8 F9 FE FF FF F5 C9 FF FF
   0.132406 2  67              Rx   d 8 30 26 00 00 A4 B4 FF FF
