date Tue Feb 28 01:50:37 am 2012
base hex  timestamps absolute
no internal events logged
// version 7.2.0
   0.001499 2  1               Rx   d 2 07 03
   0.001575 1  1               Rx   d 2 08 03
   0.001623 2  66              Rx   d 8 FF FF FF FF 00 00 00 00
   0.001648 1  1               Rx   d 2 09 03
   0.001749 2  67              Rx   d 8 01 00 00 00 00 00 00 00
   0.001773 1  68              Rx   d 8 0A 00 00 00 7E FF FF FF
   0.001841 1  1               Rx   d 2 0A 03
   0.001961 1  69              Rx   d 8 AB 01 00 00 67 00 00 00
   0.002030 1  1               Rx   d 2 0B 03
   0.002154 1  6A              Rx   d 8 FF FF FF FF 03 00 00 00
   0.002222 1  1               Rx   d 2 20 03
   0.002347 1  6B              Rx   d 8 00 00 00 00 EB FF FF FF
   0.002414 1  1               Rx   d 2 21 03
   0.002521 1  80              Rx   d 6 00 00 00 00 00 00
   0.002589 1  1               Rx   d 2 22 03
   0.002693 1  81              Rx   d 6 DB FF 00 00 00 00
   0.002760 1  1               Rx   d 2 23 03
   0.002889 1  83              Rx   d 8 01 00 00 00 00 00 00 00
   0.002957 1  1               Rx   d 2 24 03
   0.003030 1  1               Rx   d 2 25 03
   0.003131 1  84              Rx   d 6 94 00 92 01 DE FE
   0.010248 2  1               Rx   d 2 00 03
   0.010320 2  1               Rx   d 2 01 03
   0.010447 2  60              Rx   d 8 00 00 00 00 F7 FF FF FF
   0.010515 2  1               Rx   d 2 02 03
   0.010640 2  61              Rx   d 8 FF FF FF FF FF FF FF FF
   0.010709 2  1               Rx   d 2 03 03
   0.010835 2  62              Rx   d 8 00 00 00 00 00 00 00 00
   0.010905 2  1               Rx   d 2 04 03
   0.011031 2  63              Rx   d 8 00 00 00 00 00 00 00 00
   0.011100 2  1               Rx   d 2 05 03
   0.011225 2  64              Rx   d 8 FF FF FF FF F9 FF FF FF
   0.011293 2  1               Rx   d 2 06 03
   0.011416 2  65              Rx   d 8 FF FF FF FF FE FF FF FF
   0.011486 2  1               Rx   d 2 07 03
   0.011563 1  1               Rx   d 2 08 03
   0.011610 2  66              Rx   d 8 FF FF FF FF 00 00 00 00
   0.011635 1  1               Rx   d 2 09 03
   0.011736 2  67              Rx   d 8 01 00 00 00 00 00 00 00
   0.011759 1  68              Rx   d 8 0A 00 00 00 7E FF FF FF
   0.011827 1  1               Rx   d 2 0A 03
   0.011947 1  69              Rx   d 8 AB 01 00 00 67 00 00 00
   0.012016 1  1               Rx   d 2 0B 03
   0.012140 1  6A              Rx   d 8 FF FF FF FF 03 00 00 00
   0.012208 1  1               Rx   d 2 20 03
   0.012333 1  6B              Rx   d 8 00 00 00 00 EB FF FF FF
   0.012400 1  1               Rx   d 2 21 03
   0.012507 1  80              Rx   d 6 00 00 00 00 00 00
   0.012576 1  1               Rx   d 2 22 03
   0.012680 1  81              Rx   d 6 DB FF 00 00 00 00
   0.012747 1  1               Rx   d 2 23 03
   0.012876 1  83              Rx   d 8 01 00 00 00 00 00 00 00
   0.012944 1  1               Rx   d 2 24 03
   0.013048 1  84              Rx   d 6 94 00 92 01 DE FE
   0.013115 1  1               Rx   d 2 25 03
   0.020237 2  1               Rx   d 2 00 03
   0.020369 2  60              Rx   d 8 00 00 00 00 F7 FF FF FF
   0.020437 2  1               Rx   d 2 01 03
   0.020565 2  61              Rx   d 8 FF FF FF FF FF FF FF FF
   0.020633 2  1               Rx   d 2 02 03
   0.020762 2  62              Rx   d 8 00 00 00 00 00 00 00 00
   0.020831 2  1               Rx   d 2 03 03
   0.020960 2  63              Rx   d 8 00 00 00 00 00 00 00 00
   0.021030 2  1               Rx   d 2 04 03
   0.021160 2  64              Rx   d 8 FF FF FF FF F9 FF FF FF
   0.021229 2  1               Rx   d 2 05 03
   0.021302 2  1               Rx   d 2 06 03
   0.021425 2  65              Rx   d 8 FF FF FF FF FE FF FF FF
   0.021495 2  1               Rx   d 2 07 03
   0.021570 1  1               Rx   d 2 08 03
   0.021619 2  66              Rx   d 8 FF FF FF FF 00 00 00 00
   0.021698 1  68              Rx   d 8 0A 00 00 00 7E FF FF FF
   0.021745 2  67              Rx   d 8 01 00 00 00 00 00 00 00
   0.021766 1  1               Rx   d 2 09 03
   0.021890 1  69              Rx   d 8 AB 01 00 00 67 00 00 00
   0.021958 1  1               Rx   d 2 0A 03
   0.022087 1  6A              Rx   d 8 FF FF FF FF 03 00 00 00
   0.022156 1  1               Rx   d 2 0B 03
   0.022285 1  6B              Rx   d 8 00 00 00 00 EB FF FF FF
   0.022353 1  1               Rx   d 2 20 03
   0.022463 1  80              Rx   d 6 00 00 00 00 00 00
   0.022530 1  1               Rx   d 2 21 03
   0.022637 1  81              Rx   d 6 DB FF 00 00 00 00
   0.022705 1  1               Rx   d 2 22 03
   0.022778 1  1               Rx   d 2 23 03
   0.022850 1  1               Rx   d 2 24 03
   0.022975 1  83              Rx   d 8 01 00 00 00 00 00 00 00
   0.023042 1  1               Rx   d 2 25 03
   0.023143 1  84              Rx   d 6 94 00 92 01 DE FE
   0.030227 2  1               Rx   d 2 00 03
   0.030357 2  60              Rx   d 8 00 00 00 00 F7 FF FF FF
   0.030425 2  1               Rx   d 2 01 03
   0.030554 2  61              Rx   d 8 FF FF FF FF FF FF FF FF
   0.030622 2  1               Rx   d 2 02 03
   0.030695 2  1               Rx   d 2 03 03
   0.030820 2  62              Rx   d 8 00 00 00 00 00 00 00 00
   0.030890 2  1               Rx   d 2 04 03
   0.031016 2  63              Rx   d 8 00 00 00 00 00 00 00 00
   0.031085 2  1               Rx   d 2 05 03
   0.031210 2  64              Rx   d 8 FF FF FF FF F9 FF FF FF
   0.031279 2  1               Rx   d 2 06 03
   0.031402 2  65              Rx   d 8 FF FF FF FF FE FF FF FF
   0.031472 2  1               Rx   d 2 07 03
   0.031547 1  1               Rx   d 2 08 03
   0.031596 2  66              Rx   d 8 FF FF FF FF 00 00 00 00
   0.031676 1  68              Rx   d 8 0A 00 00 00 7E FF FF FF
   0.031722 2  67              Rx   d 8 01 00 00 00 00 00 00 00
   0.031744 1  1               Rx   d 2 09 03
   0.031868 1  69              Rx   d 8 AB 01 00 00 67 00 00 00
   0.031936 1  1               Rx   d 2 0A 03
   0.032009 1  1               Rx   d 2 0B 03
   0.032133 1  6A              Rx   d 8 FF FF FF FF 03 00 00 00
   0.032201 1  1               Rx   d 2 20 03
   0.032326 1  6B              Rx   d 8 00 00 00 00 EB FF FF FF
   0.032393 1  1               Rx   d 2 21 03
   0.032500 1  80              Rx   d 6 00 00 00 00 00 00
   0.032568 1  1               Rx   d 2 22 03
   0.032672 1  81              Rx   d 6 DB FF 00 00 00 00
   0.032739 1  1               Rx   d 2 23 03
   0.032812 1  1               Rx   d 2 24 03
   0.032937 1  83              Rx   d 8 01 00 00 00 00 00 00 00
   0.033004 1  1               Rx   d 2 25 03
   0.033105 1  84              Rx   d 6 94 00 92 01 DE FE
   0.040217 2  1               Rx   d 2 00 03
   0.040290 2  1               Rx   d 2 01 03
   0.040417 2  60              Rx   d 8 00 00 00 00 F7 FF FF FF
   0.040485 2  1               Rx   d 2 02 03
   0.040610 2  61              Rx   d 8 FF FF FF FF FF FF FF FF
   0.040679 2  1               Rx   d 2 03 03
   0.040805 2  62              Rx   d 8 00 00 00 00 00 00 00 00
   0.040875 2  1               Rx   d 2 04 03
   0.041001 2  63              Rx   d 8 00 00 00 00 00 00 00 00
   0.041070 2  1               Rx   d 2 05 03
   0.041195 2  64              Rx   d 8 FF FF FF FF F9 FF FF FF
   0.041263 2  1               Rx   d 2 06 03
   0.041386 2  65              Rx   d 8 FF FF FF FF FE FF FF FF
   0.041456 2  1               Rx   d 2 07 03
   0.041532 1  1               Rx   d 2 08 03
   0.041580 2  66              Rx   d 8 FF FF FF FF 00 00 00 00
   0.041605 1  1               Rx   d 2 09 03
   0.041706 2  67              Rx   d 8 01 00 00 00 00 00 00 00
   0.041729 1  68              Rx   d 8 0A 00 00 00 7E FF FF FF
   0.041797 1  1               Rx   d 2 0A 03
   0.041917 1  69              Rx   d 8 AB 01 00 00 67 00 00 00
   0.041986 1  1               Rx   d 2 0B 03
   0.042110 1  6A              Rx   d 8 FF FF FF FF 03 00 00 00
   0.042178 1  1               Rx   d 2 20 03
   0.042304 1  6B              Rx   d 8 00 00 00 00 EB FF FF FF
   0.042371 1  1               Rx   d 2 21 03
   0.042478 1  80              Rx   d 6 00 00 00 00 00 00
   0.042546 1  1               Rx   d 2 22 03
   0.042650 1  81              Rx   d 6 DB FF 00 00 00 00
   0.042717 1  1               Rx   d 2 23 03
   0.042789 1  1               Rx   d 2 24 03
   0.042914 1  83              Rx   d 8 01 00 00 00 00 00 00 00
   0.042981 1  1               Rx   d 2 25 03
   0.043082 1  84              Rx   d 6 94 00 92 01 DE FE
   0.050207 2  1               Rx   d 2 00 03
   0.050339 2  60              Rx   d 8 00 00 00 00 F7 FF FF FF
   0.050407 2  1               Rx   d 2 01 03
   0.050480 2  1               Rx   d 2 02 03
   0.050605 2  61              Rx   d 8 FF FF FF FF FF FF FF FF
   0.050674 2  1               Rx   d 2 03 03
   0.050799 2  62              Rx   d 8 00 00 00 00 00 00 00 00
   0.050869 2  1               Rx   d 2 04 03
   0.050995 2  63              Rx   d 8 00 00 00 00 00 00 00 00
   0.051064 2  1               Rx   d 2 05 03
   0.051189 2  64              Rx   d 8 FF FF FF FF F9 FF FF FF
   0.051257 2  1               Rx   d 2 06 03
   0.051381 2  65              Rx   d 8 FF FF FF FF FE FF FF FF
   0.051451 2  1               Rx   d 2 07 03
   0.051525 1  1               Rx   d 2 08 03
   0.051575 2  66              Rx   d 8 FF FF FF FF 00 00 00 00
   0.051653 1  68              Rx   d 8 0A 00 00 00 7E FF FF FF
   0.051701 2  67              Rx   d 8 01 00 00 00 00 00 00 00
   0.051721 1  1               Rx   d 2 09 03
   0.051846 1  69              Rx   d 8 AB 01 00 00 67 00 00 00
   0.051914 1  1               Rx   d 2 0A 03
   0.051987 1  1               Rx   d 2 0B 03
   0.052111 1  6A              Rx   d 8 FF FF FF FF 03 00 00 00
   0.052179 1  1               Rx   d 2 20 03
   0.052304 1  6B              Rx   d 8 00 00 00 00 EB FF FF FF
   0.052371 1  1               Rx   d 2 21 03
   0.052478 1  80              Rx   d 6 00 00 00 00 00 00
   0.052546 1  1               Rx   d 2 22 03
   0.052650 1  81              Rx   d 6 DB FF 00 00 00 00
   0.052717 1  1               Rx   d 2 23 03
   0.052846 1  83              Rx   d 8 01 00 00 00 00 00 00 00
   0.052914 1  1               Rx   d 2 24 03
   0.053020 1  84              Rx   d 6 94 00 92 01 DE FE
   0.053087 1  1               Rx   d 2 25 03
   0.060197 2  1               Rx   d 2 00 03
   0.060328 2  60              Rx   d 8 00 00 00 00 F7 FF FF FF
   0.060396 2  1               Rx   d 2 01 03
   0.060469 2  1               Rx   d 2 02 03
   0.060594 2  61              Rx   d 8 FF FF FF FF FF FF FF FF
   0.060663 2  1               Rx   d 2 03 03
   0.060789 2  62              Rx   d 8 00 00 00 00 00 00 00 00
   0.060859 2  1               Rx   d 2 04 03
   0.060985 2  63              Rx   d 8 00 00 00 00 00 00 00 00
   0.061054 2  1               Rx   d 2 05 03
   0.061179 2  64              Rx   d 8 FF FF FF FF F9 FF FF FF
   0.061247 2  1               Rx   d 2 06 03
   0.061370 2  65              Rx   d 8 FF FF FF FF FE FF FF FF
   0.061440 2  1               Rx   d 2 07 03
   0.061515 1  1               Rx   d 2 08 03
   0.061564 2  66              Rx   d 8 FF FF FF FF 00 00 00 00
   0.061587 1  1               Rx   d 2 09 03
   0.061690 2  67              Rx   d 8 01 00 00 00 00 00 00 00
   0.061711 1  68              Rx   d 8 0A 00 00 00 7E FF FF FF
   0.061779 1  1               Rx   d 2 0A 03
   0.061899 1  69              Rx   d 8 AB 01 00 00 67 00 00 00
   0.061968 1  1               Rx   d 2 0B 03
   0.062092 1  6A              Rx   d 8 FF FF FF FF 03 00 00 00
   0.062160 1  1               Rx   d 2 20 03
   0.062285 1  6B              Rx   d 8 00 00 00 00 EB FF FF FF
   0.062352 1  1               Rx   d 2 21 03
   0.062460 1  80              Rx   d 6 00 00 00 00 00 00
   0.062528 1  1               Rx   d 2 22 03
   0.062632 1  81              Rx   d 6 DB FF 00 00 00 00
   0.062699 1  1               Rx   d 2 23 03
   0.062827 1  83              Rx   d 8 01 00 00 00 00 00 00 00
   0.062895 1  1               Rx   d 2 24 03
   0.063000 1  84              Rx   d 6 94 00 92 01 DE FE
   0.063067 1  1               Rx   d 2 25 03
   0.070189 2  1               Rx   d 2 00 03
   0.070262 2  1               Rx   d 2 01 03
   0.070389 2  60              Rx   d 8 00 00 00 00 F7 FF FF FF
   0.070457 2  1               Rx   d 2 02 03
   0.070583 2  61              Rx   d 8 FF FF FF FF FF FF FF FF
   0.070652 2  1               Rx   d 2 03 03
   0.070777 2  62              Rx   d 8 00 00 00 00 00 00 00 00
   0.070847 2  1               Rx   d 2 04 03
   0.070973 2  63              Rx   d 8 00 00 00 00 00 00 00 00
   0.071042 2  1               Rx   d 2 05 03
   0.071167 2  64              Rx   d 8 FF FF FF FF F9 FF FF FF
   0.071235 2  1               Rx   d 2 06 03
   0.071358 2  65              Rx   d 8 FF FF FF FF FE FF FF FF
   0.071428 2  1               Rx   d 2 07 03
   0.071503 1  1               Rx   d 2 08 03
   0.071552 2  66              Rx   d 8 FF FF FF FF 00 00 00 00
   0.071576 1  1               Rx   d 2 09 03
   0.071679 2  67              Rx   d 8 01 00 00 00 00 00 00 00
   0.071700 1  68              Rx   d 8 0A 00 00 00 7E FF FF FF
   0.071768 1  1               Rx   d 2 0A 03
   0.071889 1  69              Rx   d 8 AB 01 00 00 67 00 00 00
   0.071958 1  1               Rx   d 2 0B 03
   0.072082 1  6A              Rx   d 8 FF FF FF FF 03 00 00 00
   0.072150 1  1               Rx   d 2 20 03
   0.072275 1  6B              Rx   d 8 00 00 00 00 EB FF FF FF
   0.072342 1  1               Rx   d 2 21 03
   0.072449 1  80              Rx   d 6 00 00 00 00 00 00
   0.072517 1  1               Rx   d 2 22 03
   0.072621 1  81              Rx   d 6 DB FF 00 00 00 00
   0.072688 1  1               Rx   d 2 23 03
   0.072816 1  83              Rx   d 8 01 00 00 00 00 00 00 00
   0.072884 1  1               Rx   d 2 24 03
   0.072989 1  84              Rx   d 6 94 00 92 01 DE FE
   0.073056 1  1               Rx   d 2 25 03
   0.080177 2  1               Rx   d 2 00 03
   0.080250 2  1               Rx   d 2 01 03
   0.080377 2  60              Rx   d 8 00 00 00 00 F7 FF FF FF
   0.080445 2  1               Rx   d 2 02 03
   0.080570 2  61              Rx   d 8 FF FF FF FF FF FF FF FF
   0.080639 2  1               Rx   d 2 03 03
   0.080764 2  62              Rx   d 8 00 00 00 00 00 00 00 00
   0.080834 2  1               Rx   d 2 04 03
   0.080960 2  63              Rx   d 8 00 00 00 00 00 00 00 00
   0.081029 2  1               Rx   d 2 05 03
   0.081155 2  64              Rx   d 8 FF FF FF FF F9 FF FF FF
   0.081223 2  1               Rx   d 2 06 03
   0.081346 2  65              Rx   d 8 FF FF FF FF FE FF FF FF
   0.081416 2  1               Rx   d 2 07 03
   0.081491 1  1               Rx   d 2 08 03
   0.081540 2  66              Rx   d 8 FF FF FF FF 00 00 00 00
   0.081619 1  68              Rx   d 8 0A 00 00 00 7E FF FF FF
   0.081666 2  67              Rx   d 8 01 00 00 00 00 00 00 00
   0.081687 1  1               Rx   d 2 09 03
   0.081759 1  1               Rx   d 2 0A 03
   0.081879 1  69              Rx   d 8 AB 01 00 00 67 00 00 00
   0.081948 1  1               Rx   d 2 0B 03
   0.082072 1  6A              Rx   d 8 FF FF FF FF 03 00 00 00
   0.082140 1  1               Rx   d 2 20 03
   0.082265 1  6B              Rx   d 8 00 00 00 00 EB FF FF FF
   0.082332 1  1               Rx   d 2 21 03
   0.082440 1  80              Rx   d 6 00 00 00 00 00 00
   0.082508 1  1               Rx   d 2 22 03
   0.082612 1  81              Rx   d 6 DB FF 00 00 00 00
   0.082679 1  1               Rx   d 2 23 03
   0.082751 1  1               Rx   d 2 24 03
   0.082876 1  83              Rx   d 8 01 00 00 00 00 00 00 00
   0.082943 1  1               Rx   d 2 25 03
   0.083044 1  84              Rx   d 6 94 00 92 01 DE FE
   0.090172 2  1               Rx   d 2 00 03
   0.090303 2  60              Rx   d 8 00 00 00 00 F7 FF FF FF
   0.090371 2  1               Rx   d 2 01 03
   0.090444 2  1               Rx   d 2 02 03
   0.090570 2  61              Rx   d 8 FF FF FF FF FF FF FF FF
   0.090639 2  1               Rx   d 2 03 03
   0.090764 2  62              Rx   d 8 00 00 00 00 00 00 00 00
   0.090834 2  1               Rx   d 2 04 03
   0.090960 2  63              Rx   d 8 00 00 00 00 00 00 00 00
   0.091029 2  1               Rx   d 2 05 03
   0.091154 2  64              Rx   d 8 FF FF FF FF F9 FF FF FF
   0.091222 2  1               Rx   d 2 06 03
   0.091345 2  65              Rx   d 8 FF FF FF FF FE FF FF FF
   0.091415 2  1               Rx   d 2 07 03
   0.091490 1  1               Rx   d 2 08 03
   0.091539 2  66              Rx   d 8 FF FF FF FF 00 00 00 00
   0.091618 1  68              Rx   d 8 0A 00 00 00 7E FF FF FF
   0.091666 2  67              Rx   d 8 01 00 00 00 00 00 00 00
   0.091686 1  1               Rx   d 2 09 03
   0.091759 1  1               Rx   d 2 0A 03
   0.091879 1  69              Rx   d 8 AB 01 00 00 67 00 00 00
   0.091948 1  1               Rx   d 2 0B 03
   0.092072 1  6A              Rx   d 8 FF FF FF FF 03 00 00 00
   0.092140 1  1               Rx   d 2 20 03
   0.092265 1  6B              Rx   d 8 00 00 00 00 EB FF FF FF
   0.092332 1  1               Rx   d 2 21 03
   0.092439 1  80              Rx   d 6 00 00 00 00 00 00
   0.092507 1  1               Rx   d 2 22 03
   0.092611 1  81              Rx   d 6 DB FF 00 00 00 00
   0.092678 1  1               Rx   d 2 23 03
   0.092751 1  1               Rx   d 2 24 03
   0.092877 1  83              Rx   d 8 01 00 00 00 00 00 00 00
   0.092944 1  1               Rx   d 2 25 03
   0.093045 1  84              Rx   d 6 94 00 92 01 DE FE
   0.100158 2  1               Rx   d 2 00 03
   0.100289 2  60              Rx   d 8 00 00 00 00 F7 FF FF FF
   0.100357 2  1               Rx   d 2 01 03
   0.100430 2  1               Rx   d 2 02 03
   0.100555 2  61              Rx   d 8 FF FF FF FF FF FF FF FF
   0.100624 2  1               Rx   d 2 03 03
   0.100749 2  62              Rx   d 8 00 00 00 00 00 00 00 00
   0.100819 2  1               Rx   d 2 04 03
   0.100945 2  63              Rx   d 8 00 00 00 00 00 00 00 00
   0.101014 2  1               Rx   d 2 05 03
   0.101140 2  64              Rx   d 8 FF FF FF FF F9 FF FF FF
   0.101208 2  1               Rx   d 2 06 03
   0.101331 2  65              Rx   d 8 FF FF FF FF FE FF FF FF
   0.101401 2  1               Rx   d 2 07 03
   0.101476 1  1               Rx   d 2 08 03
   0.101525 2  66              Rx   d 8 FF FF FF FF 00 00 00 00
   0.101548 1  1               Rx   d 2 09 03
   0.101651 2  67              Rx   d 8 01 00 00 00 00 00 00 00
   0.101672 1  68              Rx   d 8 0A 00 00 00 7E FF FF FF
   0.101740 1  1               Rx   d 2 0A 03
   0.101860 1  69              Rx   d 8 AB 01 00 00 67 00 00 00
   0.101929 1  1               Rx   d 2 0B 03
   0.102053 1  6A              Rx   d 8 FF FF FF FF 03 00 00 00
   0.102121 1  1               Rx   d 2 20 03
   0.102246 1  6B              Rx   d 8 00 00 00 00 EB FF FF FF
   0.102313 1  1               Rx   d 2 21 03
   0.102421 1  80              Rx   d 6 00 00 00 00 00 00
   0.102489 1  1               Rx   d 2 22 03
   0.102593 1  81              Rx   d 6 DB FF 00 00 00 00
   0.102660 1  1               Rx   d 2 23 03
   0.102733 1  1               Rx   d 2 24 03
   0.102858 1  83              Rx   d 8 01 00 00 00 00 00 00 00
   0.102925 1  1               Rx   d 2 25 03
   0.103026 1  84              Rx   d 6 94 00 92 01 DE FE
   0.110147 2  1               Rx   d 2 00 03
   0.110219 2  1               Rx   d 2 01 03
   0.110346 2  60              Rx   d 8 00 00 00 00 F7 FF FF FF
   0.110415 2  1               Rx   d 2 02 03
   0.110540 2  61              Rx   d 8 FF FF FF FF FF FF FF FF
   0.110609 2  1               Rx   d 2 03 03
   0.110734 2  62              Rx   d 8 00 00 00 00 00 00 00 00
   0.110804 2  1               Rx   d 2 04 03
   0.110930 2  63              Rx   d 8 00 00 00 00 00 00 00 00
   0.110999 2  1               Rx   d 2 05 03
   0.111124 2  64              Rx   d 8 FF FF FF FF F9 FF FF FF
   0.111192 2  1               Rx   d 2 06 03
   0.111315 2  65              Rx   d 8 FF FF FF FF FE FF FF FF
   0.111385 2  1               Rx   d 2 07 03
   0.111460 1  1               Rx   d 2 08 03
   0.111509 2  66              Rx   d 8 FF FF FF FF 00 00 00 00
   0.111588 1  68              Rx   d 8 0A 00 00 00 7E FF FF FF
   0.111636 2  67              Rx   d 8 01 00 00 00 00 00 00 00
   0.111656 1  1               Rx   d 2 09 03
   0.111729 1  1               Rx   d 2 0A 03
   0.111849 1  69              Rx   d 8 AB 01 00 00 67 00 00 00
   0.111918 1  1               Rx   d 2 0B 03
   0.112042 1  6A              Rx   d 8 FF FF FF FF 03 00 00 00
   0.112110 1  1               Rx   d 2 20 03
   0.112235 1  6B              Rx   d 8 00 00 00 00 EB FF FF FF
   0.112302 1  1               Rx   d 2 21 03
   0.112409 1  80              Rx   d 6 00 00 00 00 00 00
   0.112477 1  1               Rx   d 2 22 03
   0.112581 1  81              Rx   d 6 DB FF 00 00 00 00
   0.112648 1  1               Rx   d 2 23 03
   0.112720 1  1               Rx   d 2 24 03
   0.112846 1  83              Rx   d 8 01 00 00 00 00 00 00 00
   0.112913 1  1               Rx   d 2 25 03
   0.113014 1  84              Rx   d 6 94 00 92 01 DE FE
   0.120137 2  1               Rx   d 2 00 03
   0.120209 2  1               Rx   d 2 01 03
   0.120336 2  60              Rx   d 8 00 00 00 00 F7 FF FF FF
   0.120404 2  1               Rx   d 2 02 03
   0.120529 2  61              Rx   d 8 FF FF FF FF FF FF FF FF
   0.120598 2  1               Rx   d 2 03 03
   0.120723 2  62              Rx   d 8 00 00 00 00 00 00 00 00
   0.120793 2  1               Rx   d 2 04 03
   0.120919 2  63              Rx   d 8 00 00 00 00 00 00 00 00
   0.120989 2  1               Rx   d 2 05 03
   0.121114 2  64              Rx   d 8 FF FF FF FF F9 FF FF FF
   0.121182 2  1               Rx   d 2 06 03
   0.121305 2  65              Rx   d 8 FF FF FF FF FE FF FF FF
   0.121375 2  1               Rx   d 2 07 03
   0.121451 1  1               Rx   d 2 08 03
   0.121499 2  66              Rx   d 8 FF FF FF FF 00 00 00 00
   0.121578 1  68              Rx   d 8 0A 00 00 00 7E FF FF FF
   0.121625 2  67              Rx   d 8 01 00 00 00 00 00 00 00
   0.121646 1  1               Rx   d 2 09 03
   0.121770 1  69              Rx   d 8 AB 01 00 00 67 00 00 00
   0.121838 1  1               Rx   d 2 0A 03
   0.121966 1  6A              Rx   d 8 FF FF FF FF 03 00 00 00
   0.122035 1  1               Rx   d 2 0B 03
   0.122107 1  1               Rx   d 2 20 03
   0.122232 1  6B              Rx   d 8 00 00 00 00 EB FF FF FF
   0.122299 1  1               Rx   d 2 21 03
   0.122407 1  80              Rx   d 6 00 00 00 00 00 00
   0.122475 1  1               Rx   d 2 22 03
   0.122579 1  81              Rx   d 6 DB FF 00 00 00 00
   0.122646 1  1               Rx   d 2 23 03
   0.122718 1  1               Rx   d 2 24 03
   0.122843 1  83              Rx   d 8 01 00 00 00 00 00 00 00
   0.122910 1  1               Rx   d 2 25 03
   0.123011 1  84              Rx   d 6 94 00 92 01 DE FE
   0.130126 2  1               Rx   d 2 00 03
   0.130257 2  60              Rx   d 8 00 00 00 00 F7 FF FF FF
   0.130325 2  1               Rx   d 2 01 03
   0.130454 2  61              Rx   d 8 FF FF FF FF FF FF FF FF
   0.130522 2  1               Rx   d 2 02 03
   0.130596 2  1               Rx   d 2 03 03
   0.130721 2  62              Rx   d 8 00 00 00 00 00 00 00 00
   0.130791 2  1               Rx   d 2 04 03
   0.130917 2  63              Rx   d 8 00 00 00 00 00 00 00 00
   0.130986 2  1               Rx   d 2 05 03
   0.131111 2  64              Rx   d 8 FF FF FF FF F9 FF FF FF
   0.131180 2  1               Rx   d 2 06 03
   0.131303 2  65              Rx   d 8 FF FF FF FF FE FF FF FF
   0.131373 2  1               Rx   d 2 07 03
   0.131448 1  1               Rx   d 2 08 03
   0.131497 2  66              Rx   d 8 FF FF FF FF 00 00 00 00
   0.131521 1  1               Rx   d 2 09 03
   0.131623 2  67              Rx   d 8 01 00 00 00 00 00 00 00
   0.131646 1  68              Rx   d 8 0A 00 00 00 7E FF FF FF
   0.131714 1  1               Rx   d 2 0A 03
   0.131834 1  69              Rx   d 8 AB 01 00 00 67 00 00 00
   0.131903 1  1               Rx   d 2 0B 03
   0.132027 1  6A              Rx   d 8 FF FF FF FF 03 00 00 00
