date Tue Feb 28 01:19:13 am 2012
base hex  timestamps absolute
no internal events logged
// version 7.2.0
   0.001005 1  1               Rx   d 2 22 03
   0.001111 1  81              Rx   d 6 00 00 04 00 00 00
   0.001178 1  1               Rx   d 2 23 03
   0.001304 1  83              Rx   d 8 11 50 FF FF 00 00 00 00
   0.001372 1  1               Rx   d 2 24 03
   0.001443 1  1               Rx   d 2 25 03
   0.001545 1  84              Rx   d 6 94 00 92 01 DE FE
   0.008699 2  1               Rx   d 2 00 03
   0.008822 2  60              Rx   d 8 61 F2 FF FF D1 4E 00 00
   0.008890 2  1               Rx   d 2 01 03
   0.009014 2  61              Rx   d 8 DC 25 00 00 C9 F4 FF FF
   0.009083 2  1               Rx   d 2 02 03
   0.009207 2  62              Rx   d 8 F4 5B 00 00 00 00 00 00
   0.009276 2  1               Rx   d 2 03 03
   0.009350 2  1               Rx   d 2 04 03
   0.009472 2  63              Rx   d 8 00 00 00 00 E2 3A 00 00
   0.009541 2  1               Rx   d 2 05 03
   0.009661 2  64              Rx   d 8 C4 0E 00 00 F7 5C 00 00
   0.009729 2  1               Rx   d 2 06 03
   0.009851 2  65              Rx   d 8 E1 DC FF FF 82 1F 00 00
   0.009921 2  1               Rx   d 2 07 03
   0.009997 1  1               Rx   d 2 08 03
   0.010040 2  66              Rx   d 8 DA 3D FF FF 6B BF FF FF
   0.010070 1  1               Rx   d 2 09 03
   0.010160 2  67              Rx   d 8 5B F7 FF FF 1F 31 00 00
   0.010192 1  68              Rx   d 8 35 FF FF FF F1 C9 FF FF
   0.010260 1  1               Rx   d 2 0A 03
   0.010382 1  69              Rx   d 8 BF FF FF FF CD 03 00 00
   0.010451 1  1               Rx   d 2 0B 03
   0.010571 1  6A              Rx   d 8 16 68 00 00 9E 13 00 00
   0.010639 1  1               Rx   d 2 20 03
   0.010759 1  6B              Rx   d 8 6A FF FF FF 2D 02 00 00
   0.010826 1  1               Rx   d 2 21 03
   0.010934 1  80              Rx   d 6 0C 00 FF FF 02 00
   0.011002 1  1               Rx   d 2 22 03
   0.011108 1  81              Rx   d 6 00 00 04 00 00 00
   0.011175 1  1               Rx   d 2 23 03
   0.011301 1  83              Rx   d 8 11 50 FF FF 00 00 00 00
   0.011369 1  1               Rx   d 2 24 03
   0.011474 1  84              Rx   d 6 94 00 92 01 DE FE
   0.011541 1  1               Rx   d 2 25 03
   0.018689 2  1               Rx   d 2 00 03
   0.018762 2  1               Rx   d 2 01 03
   0.018882 2  60              Rx   d 8 61 F2 FF FF D1 4E 00 00
   0.018950 2  1               Rx   d 2 02 03
   0.019070 2  61              Rx   d 8 DC 25 00 00 C9 F4 FF FF
   0.019139 2  1               Rx   d 2 03 03
   0.019261 2  62              Rx   d 8 F4 5B 00 00 00 00 00 00
   0.019331 2  1               Rx   d 2 04 03
   0.019453 2  63              Rx   d 8 00 00 00 00 E2 3A 00 00
   0.019522 2  1               Rx   d 2 05 03
   0.019642 2  64              Rx   d 8 C4 0E 00 00 F7 5C 00 00
   0.019710 2  1               Rx   d 2 06 03
   0.019831 2  65              Rx   d 8 E1 DC FF FF 82 1F 00 00
   0.019901 2  1               Rx   d 2 07 03
   0.019976 1  1               Rx   d 2 08 03
   0.020020 2  66              Rx   d 8 DA 3D FF FF 6B BF FF FF
   0.020102 1  68              Rx   d 8 35 FF FF FF F1 C9 FF FF
   0.020140 2  67              Rx   d 8 5B F7 FF FF 1F 31 00 00
   0.020170 1  1               Rx   d 2 09 03
   0.020244 1  1               Rx   d 2 0A 03
   0.020366 1  69              Rx   d 8 BF FF FF FF CD 03 00 00
   0.020435 1  1               Rx   d 2 0B 03
   0.020555 1  6A              Rx   d 8 16 68 00 00 9E 13 00 00
   0.020623 1  1               Rx   d 2 20 03
   0.020743 1  6B              Rx   d 8 6A FF FF FF 2D 02 00 00
   0.020810 1  1               Rx   d 2 21 03
   0.020917 1  80              Rx   d 6 0C 00 FF FF 02 00
   0.020985 1  1               Rx   d 2 22 03
   0.021091 1  81              Rx   d 6 00 00 04 00 00 00
   0.021158 1  1               Rx   d 2 23 03
   0.021230 1  1               Rx   d 2 24 03
   0.021353 1  83              Rx   d 8 11 50 FF FF 00 00 00 00
   0.021420 1  1               Rx   d 2 25 03
   0.021521 1  84              Rx   d 6 94 00 92 01 DE FE
   0.028679 2  1               Rx   d 2 00 03
   0.028804 2  60              Rx   d 8 61 F2 FF FF D1 4E 00 00
   0.028872 2  1               Rx   d 2 01 03
   0.028995 2  61              Rx   d 8 DC 25 00 00 C9 F4 FF FF
   0.029063 2  1               Rx   d 2 02 03
   0.029188 2  62              Rx   d 8 F4 5B 00 00 00 00 00 00
   0.029257 2  1               Rx   d 2 03 03
   0.029332 2  1               Rx   d 2 04 03
   0.029454 2  63              Rx   d 8 00 00 00 00 E2 3A 00 00
   0.029524 2  1               Rx   d 2 05 03
   0.029644 2  64              Rx   d 8 C4 0E 00 00 F7 5C 00 00
   0.029712 2  1               Rx   d 2 06 03
   0.029833 2  65              Rx   d 8 E1 DC FF FF 82 1F 00 00
   0.029903 2  1               Rx   d 2 07 03
   0.029979 1  1               Rx   d 2 08 03
   0.030022 2  66              Rx   d 8 DA 3D FF FF 6B BF FF FF
   0.030104 1  68              Rx   d 8 35 FF FF FF F1 C9 FF FF
   0.030142 2  67              Rx   d 8 5B F7 FF FF 1F 31 00 00
   0.030172 1  1               Rx   d 2 09 03
   0.030298 1  69              Rx   d 8 BF FF FF FF CD 03 00 00
   0.030366 1  1               Rx   d 2 0A 03
   0.030489 1  6A              Rx   d 8 16 68 00 00 9E 13 00 00
   0.030558 1  1               Rx   d 2 0B 03
   0.030681 1  6B              Rx   d 8 6A FF FF FF 2D 02 00 00
   0.030749 1  1               Rx   d 2 20 03
   0.030821 1  1               Rx   d 2 21 03
   0.030928 1  80              Rx   d 6 0C 00 FF FF 02 00
   0.030996 1  1               Rx   d 2 22 03
   0.031102 1  81              Rx   d 6 00 00 04 00 00 00
   0.031169 1  1               Rx   d 2 23 03
   0.031241 1  1               Rx   d 2 24 03
   0.031363 1  83              Rx   d 8 11 50 FF FF 00 00 00 00
   0.031430 1  1               Rx   d 2 25 03
   0.031531 1  84              Rx   d 6 94 00 92 01 DE FE
   0.038668 2  1               Rx   d 2 00 03
   0.038792 2  60              Rx   d 8 61 F2 FF FF D1 4E 00 00
   0.038861 2  1               Rx   d 2 01 03
   0.038933 2  1               Rx   d 2 02 03
   0.039053 2  61              Rx   d 8 DC 25 00 00 C9 F4 FF FF
   0.039122 2  1               Rx   d 2 03 03
   0.039243 2  62              Rx   d 8 F4 5B 00 00 00 00 00 00
   0.039313 2  1               Rx   d 2 04 03
   0.039435 2  63              Rx   d 8 00 00 00 00 E2 3A 00 00
   0.039504 2  1               Rx   d 2 05 03
   0.039624 2  64              Rx   d 8 C4 0E 00 00 F7 5C 00 00
   0.039692 2  1               Rx   d 2 06 03
   0.039813 2  65              Rx   d 8 E1 DC FF FF 82 1F 00 00
   0.039884 2  1               Rx   d 2 07 03
   0.039959 1  1               Rx   d 2 08 03
   0.040003 2  66              Rx   d 8 DA 3D FF FF 6B BF FF FF
   0.040085 1  68              Rx   d 8 35 FF FF FF F1 C9 FF FF
   0.040123 2  67              Rx   d 8 5B F7 FF FF 1F 31 00 00
   0.040153 1  1               Rx   d 2 09 03
   0.040226 1  1               Rx   d 2 0A 03
   0.040348 1  69              Rx   d 8 BF FF FF FF CD 03 00 00
   0.040417 1  1               Rx   d 2 0B 03
   0.040537 1  6A              Rx   d 8 16 68 00 00 9E 13 00 00
   0.040605 1  1               Rx   d 2 20 03
   0.040725 1  6B              Rx   d 8 6A FF FF FF 2D 02 00 00
   0.040792 1  1               Rx   d 2 21 03
   0.040899 1  80              Rx   d 6 0C 00 FF FF 02 00
   0.040967 1  1               Rx   d 2 22 03
   0.041073 1  81              Rx   d 6 00 00 04 00 00 00
   0.041140 1  1               Rx   d 2 23 03
   0.041212 1  1               Rx   d 2 24 03
   0.041335 1  83              Rx   d 8 11 50 FF FF 00 00 00 00
   0.041402 1  1               Rx   d 2 25 03
   0.041503 1  84              Rx   d 6 94 00 92 01 DE FE
   0.048659 2  1               Rx   d 2 00 03
   0.048782 2  60              Rx   d 8 61 F2 FF FF D1 4E 00 00
   0.048850 2  1               Rx   d 2 01 03
   0.048973 2  61              Rx   d 8 DC 25 00 00 C9 F4 FF FF
   0.049041 2  1               Rx   d 2 02 03
   0.049115 2  1               Rx   d 2 03 03
   0.049236 2  62              Rx   d 8 F4 5B 00 00 00 00 00 00
   0.049306 2  1               Rx   d 2 04 03
   0.049428 2  63              Rx   d 8 00 00 00 00 E2 3A 00 00
   0.049497 2  1               Rx   d 2 05 03
   0.049617 2  64              Rx   d 8 C4 0E 00 00 F7 5C 00 00
   0.049685 2  1               Rx   d 2 06 03
   0.049806 2  65              Rx   d 8 E1 DC FF FF 82 1F 00 00
   0.049876 2  1               Rx   d 2 07 03
   0.049952 1  1               Rx   d 2 08 03
   0.049995 2  66              Rx   d 8 DA 3D FF FF 6B BF FF FF
   0.050078 1  68              Rx   d 8 35 FF FF FF F1 C9 FF FF
   0.050115 2  67              Rx   d 8 5B F7 FF FF 1F 31 00 00
   0.050146 1  1               Rx   d 2 09 03
   0.050219 1  1               Rx   d 2 0A 03
   0.050341 1  69              Rx   d 8 BF FF FF FF CD 03 00 00
   0.050410 1  1               Rx   d 2 0B 03
   0.050530 1  6A              Rx   d 8 16 68 00 00 9E 13 00 00
   0.050598 1  1               Rx   d 2 20 03
   0.050718 1  6B              Rx   d 8 6A FF FF FF 2D 02 00 00
   0.050785 1  1               Rx   d 2 21 03
   0.050892 1  80              Rx   d 6 0C 00 FF FF 02 00
   0.050961 1  1               Rx   d 2 22 03
   0.051067 1  81              Rx   d 6 00 00 04 00 00 00
   0.051134 1  1               Rx   d 2 23 03
   0.051207 1  1               Rx   d 2 24 03
   0.051329 1  83              Rx   d 8 11 50 FF FF 00 00 00 00
   0.051396 1  1               Rx   d 2 25 03
   0.051497 1  84              Rx   d 6 94 00 92 01 DE FE
   0.058653 2  1               Rx   d 2 00 03
   0.058726 2  1               Rx   d 2 01 03
   0.058846 2  60              Rx   d 8 61 F2 FF FF D1 4E 00 00
   0.058914 2  1               Rx   d 2 02 03
   0.059034 2  61              Rx   d 8 DC 25 00 00 C9 F4 FF FF
   0.059103 2  1               Rx   d 2 03 03
   0.059224 2  62              Rx   d 8 F4 5B 00 00 00 00 00 00
   0.059294 2  1               Rx   d 2 04 03
   0.059416 2  63              Rx   d 8 00 00 00 00 E2 3A 00 00
   0.059486 2  1               Rx   d 2 05 03
   0.059606 2  64              Rx   d 8 C4 0E 00 00 F7 5C 00 00
   0.059674 2  1               Rx   d 2 06 03
   0.059795 2  65              Rx   d 8 E1 DC FF FF 82 1F 00 00
   0.059865 2  1               Rx   d 2 07 03
   0.059940 1  1               Rx   d 2 08 03
   0.059984 2  66              Rx   d 8 DA 3D FF FF 6B BF FF FF
   0.060065 1  68              Rx   d 8 35 FF FF FF F1 C9 FF FF
   0.060104 2  67              Rx   d 8 5B F7 FF FF 1F 31 00 00
   0.060133 1  1               Rx   d 2 09 03
   0.060259 1  69              Rx   d 8 BF FF FF FF CD 03 00 00
   0.060327 1  1               Rx   d 2 0A 03
   0.060451 1  6A              Rx   d 8 16 68 00 00 9E 13 00 00
   0.060520 1  1               Rx   d 2 0B 03
   0.060592 1  1               Rx   d 2 20 03
   0.060712 1  6B              Rx   d 8 6A FF FF FF 2D 02 00 00
   0.060779 1  1               Rx   d 2 21 03
   0.060886 1  80              Rx   d 6 0C 00 FF FF 02 00
   0.060954 1  1               Rx   d 2 22 03
   0.061060 1  81              Rx   d 6 00 00 04 00 00 00
   0.061127 1  1               Rx   d 2 23 03
   0.061200 1  1               Rx   d 2 24 03
   0.061322 1  83              Rx   d 8 11 50 FF FF 00 00 00 00
   0.061389 1  1               Rx   d 2 25 03
   0.061491 1  84              Rx   d 6 94 00 92 01 DE FE
   0.068641 2  1               Rx   d 2 00 03
   0.068764 2  60              Rx   d 8 61 F2 FF FF D1 4E 00 00
   0.068832 2  1               Rx   d 2 01 03
   0.068957 2  61              Rx   d 8 DC 25 00 00 C9 F4 FF FF
   0.069025 2  1               Rx   d 2 02 03
   0.069099 2  1               Rx   d 2 03 03
   0.069220 2  62              Rx   d 8 F4 5B 00 00 00 00 00 00
   0.069290 2  1               Rx   d 2 04 03
   0.069412 2  63              Rx   d 8 00 00 00 00 E2 3A 00 00
   0.069481 2  1               Rx   d 2 05 03
   0.069601 2  64              Rx   d 8 C4 0E 00 00 F7 5C 00 00
   0.069669 2  1               Rx   d 2 06 03
   0.069791 2  65              Rx   d 8 E1 DC FF FF 82 1F 00 00
   0.069861 2  1               Rx   d 2 07 03
   0.069937 1  1               Rx   d 2 08 03
   0.069980 2  66              Rx   d 8 DA 3D FF FF 6B BF FF FF
   0.070009 1  1               Rx   d 2 09 03
   0.070100 2  67              Rx   d 8 5B F7 FF FF 1F 31 00 00
   0.070131 1  68              Rx   d 8 35 FF FF FF F1 C9 FF FF
   0.070199 1  1               Rx   d 2 0A 03
   0.070321 1  69              Rx   d 8 BF FF FF FF CD 03 00 00
   0.070390 1  1               Rx   d 2 0B 03
   0.070510 1  6A              Rx   d 8 16 68 00 00 9E 13 00 00
   0.070578 1  1               Rx   d 2 20 03
   0.070698 1  6B              Rx   d 8 6A FF FF FF 2D 02 00 00
   0.070765 1  1               Rx   d 2 21 03
   0.070872 1  80              Rx   d 6 0C 00 FF FF 02 00
   0.070940 1  1               Rx   d 2 22 03
   0.071047 1  81              Rx   d 6 00 00 04 00 00 00
   0.071114 1  1               Rx   d 2 23 03
   0.071186 1  1               Rx   d 2 24 03
   0.071308 1  83              Rx   d 8 11 50 FF FF 00 00 00 00
   0.071375 1  1               Rx   d 2 25 03
   0.071476 1  84              Rx   d 6 94 00 92 01 DE FE
   0.078634 2  1               Rx   d 2 00 03
   0.078758 2  60              Rx   d 8 61 F2 FF FF D1 4E 00 00
   0.078826 2  1               Rx   d 2 01 03
   0.078899 2  1               Rx   d 2 02 03
   0.079019 2  61              Rx   d 8 DC 25 00 00 C9 F4 FF FF
   0.079088 2  1               Rx   d 2 03 03
   0.079210 2  62              Rx   d 8 F4 5B 00 00 00 00 00 00
   0.079280 2  1               Rx   d 2 04 03
   0.079402 2  63              Rx   d 8 00 00 00 00 E2 3A 00 00
   0.079471 2  1               Rx   d 2 05 03
   0.079591 2  64              Rx   d 8 C4 0E 00 00 F7 5C 00 00
   0.079659 2  1               Rx   d 2 06 03
   0.079780 2  65              Rx   d 8 E1 DC FF FF 82 1F 00 00
   0.079850 2  1               Rx   d 2 07 03
   0.079926 1  1               Rx   d 2 08 03
   0.079969 2  66              Rx   d 8 DA 3D FF FF 6B BF FF FF
   0.079998 1  1               Rx   d 2 09 03
   0.080089 2  67              Rx   d 8 5B F7 FF FF 1F 31 00 00
   0.080120 1  68              Rx   d 8 35 FF FF FF F1 C9 FF FF
   0.080188 1  1               Rx   d 2 0A 03
   0.080310 1  69              Rx   d 8 BF FF FF FF CD 03 00 00
   0.080379 1  1               Rx   d 2 0B 03
   0.080499 1  6A              Rx   d 8 16 68 00 00 9E 13 00 00
   0.080567 1  1               Rx   d 2 20 03
   0.080688 1  6B              Rx   d 8 6A FF FF FF 2D 02 00 00
   0.080755 1  1               Rx   d 2 21 03
   0.080862 1  80              Rx   d 6 0C 00 FF FF 02 00
   0.080930 1  1               Rx   d 2 22 03
   0.081036 1  81              Rx   d 6 00 00 04 00 00 00
   0.081103 1  1               Rx   d 2 23 03
   0.081175 1  1               Rx   d 2 24 03
   0.081297 1  83              Rx   d 8 11 50 FF FF 00 00 00 00
   0.081364 1  1               Rx   d 2 25 03
   0.081465 1  84              Rx   d 6 94 00 92 01 DE FE
   0.088624 2  1               Rx   d 2 00 03
   0.088697 2  1               Rx   d 2 01 03
   0.088818 2  60              Rx   d 8 61 F2 FF FF D1 4E 00 00
   0.088886 2  1               Rx   d 2 02 03
   0.089006 2  61              Rx   d 8 DC 25 00 00 C9 F4 FF FF
   0.089075 2  1               Rx   d 2 03 03
   0.089196 2  62              Rx   d 8 F4 5B 00 00 00 00 00 00
   0.089266 2  1               Rx   d 2 04 03
   0.089388 2  63              Rx   d 8 00 00 00 00 E2 3A 00 00
   0.089457 2  1               Rx   d 2 05 03
   0.089577 2  64              Rx   d 8 C4 0E 00 00 F7 5C 00 00
   0.089645 2  1               Rx   d 2 06 03
   0.089766 2  65              Rx   d 8 E1 DC FF FF 82 1F 00 00
   0.089837 2  1               Rx   d 2 07 03
   0.089912 1  1               Rx   d 2 08 03
   0.089956 2  66              Rx   d 8 DA 3D FF FF 6B BF FF FF
   0.089984 1  1               Rx   d 2 09 03
   0.090076 2  67              Rx   d 8 5B F7 FF FF 1F 31 00 00
   0.090107 1  68              Rx   d 8 35 FF FF FF F1 C9 FF FF
   0.090175 1  1               Rx   d 2 0A 03
   0.090297 1  69              Rx   d 8 BF FF FF FF CD 03 00 00
   0.090366 1  1               Rx   d 2 0B 03
   0.090486 1  6A              Rx   d 8 16 68 00 00 9E 13 00 00
   0.090554 1  1               Rx   d 2 20 03
   0.090674 1  6B              Rx   d 8 6A FF FF FF 2D 02 00 00
   0.090741 1  1               Rx   d 2 21 03
   0.090848 1  80              Rx   d 6 0C 00 FF FF 02 00
   0.090916 1  1               Rx   d 2 22 03
   0.091022 1  81              Rx   d 6 00 00 04 00 00 00
   0.091089 1  1               Rx   d 2 23 03
   0.091161 1  1               Rx   d 2 24 03
   0.091284 1  83              Rx   d 8 11 50 FF FF 00 00 00 00
   0.091351 1  1               Rx   d 2 25 03
   0.091452 1  84              Rx   d 6 94 00 92 01 DE FE
   0.098616 2  1               Rx   d 2 00 03
   0.098689 2  1               Rx   d 2 01 03
   0.098809 2  60              Rx   d 8 61 F2 FF FF D1 4E 00 00
   0.098877 2  1               Rx   d 2 02 03
   0.098997 2  61              Rx   d 8 DC 25 00 00 C9 F4 FF FF
   0.099066 2  1               Rx   d 2 03 03
   0.099188 2  62              Rx   d 8 F4 5B 00 00 00 00 00 00
   0.099258 2  1               Rx   d 2 04 03
   0.099380 2  63              Rx   d 8 00 00 00 00 E2 3A 00 00
   0.099449 2  1               Rx   d 2 05 03
   0.099569 2  64              Rx   d 8 C4 0E 00 00 F7 5C 00 00
   0.099637 2  1               Rx   d 2 06 03
   0.099758 2  65              Rx   d 8 E1 DC FF FF 82 1F 00 00
   0.099828 2  1               Rx   d 2 07 03
   0.099904 1  1               Rx   d 2 08 03
   0.099947 2  66              Rx   d 8 DA 3D FF FF 6B BF FF FF
   0.099976 1  1               Rx   d 2 09 03
   0.100067 2  67              Rx   d 8 5B F7 FF FF 1F 31 00 00
   0.100098 1  68              Rx   d 8 35 FF FF FF F1 C9 FF FF
   0.100166 1  1               Rx   d 2 0A 03
   0.100288 1  69              Rx   d 8 BF FF FF FF CD 03 00 00
   0.100357 1  1               Rx   d 2 0B 03
   0.100477 1  6A              Rx   d 8 16 68 00 00 9E 13 00 00
   0.100545 1  1               Rx   d 2 20 03
   0.100665 1  6B              Rx   d 8 6A FF FF FF 2D 02 00 00
   0.100732 1  1               Rx   d 2 21 03
   0.100839 1  80              Rx   d 6 0C 00 FF FF 02 00
   0.100907 1  1               Rx   d 2 22 03
   0.101014 1  81              Rx   d 6 00 00 04 00 00 00
   0.101081 1  1               Rx   d 2 23 03
   0.101206 1  83              Rx   d 8 11 50 FF FF 00 00 00 00
   0.101274 1  1               Rx   d 2 24 03
   0.101346 1  1               Rx   d 2 25 03
   0.101447 1  84              Rx   d 6 94 00 92 01 DE FE
   0.108601 2  1               Rx   d 2 00 03
   0.108674 2  1               Rx   d 2 01 03
   0.108794 2  60              Rx   d 8 61 F2 FF FF D1 4E 00 00
   0.108862 2  1               Rx   d 2 02 03
   0.108982 2  61              Rx   d 8 DC 25 00 00 C9 F4 FF FF
   0.109051 2  1               Rx   d 2 03 03
   0.109172 2  62              Rx   d 8 F4 5B 00 00 00 00 00 00
   0.109242 2  1               Rx   d 2 04 03
   0.109364 2  63              Rx   d 8 00 00 00 00 E2 3A 00 00
   0.109433 2  1               Rx   d 2 05 03
   0.109554 2  64              Rx   d 8 C4 0E 00 00 F7 5C 00 00
   0.109622 2  1               Rx   d 2 06 03
   0.109743 2  65              Rx   d 8 E1 DC FF FF 82 1F 00 00
   0.109813 2  1               Rx   d 2 07 03
   0.109889 1  1               Rx   d 2 08 03
   0.109932 2  66              Rx   d 8 DA 3D FF FF 6B BF FF FF
   0.110015 1  68              Rx   d 8 35 FF FF FF F1 C9 FF FF
   0.110052 2  67              Rx   d 8 5B F7 FF FF 1F 31 00 00
   0.110083 1  1               Rx   d 2 09 03
   0.110209 1  69              Rx   d 8 BF FF FF FF CD 03 00 00
   0.110277 1  1               Rx   d 2 0A 03
   0.110400 1  6A              Rx   d 8 16 68 00 00 9E 13 00 00
   0.110469 1  1               Rx   d 2 0B 03
   0.110542 1  1               Rx   d 2 20 03
   0.110662 1  6B              Rx   d 8 6A FF FF FF 2D 02 00 00
   0.110729 1  1               Rx   d 2 21 03
   0.110836 1  80              Rx   d 6 0C 00 FF FF 02 00
   0.110904 1  1               Rx   d 2 22 03
   0.111010 1  81              Rx   d 6 00 00 04 00 00 00
   0.111077 1  1               Rx   d 2 23 03
   0.111150 1  1               Rx   d 2 24 03
   0.111272 1  83              Rx   d 8 11 50 FF FF 00 00 00 00
   0.111339 1  1               Rx   d 2 25 03
   0.111440 1  84              Rx   d 6 94 00 92 01 DE FE
   0.118593 2  1               Rx   d 2 00 03
   0.118665 2  1               Rx   d 2 01 03
   0.118785 2  60              Rx   d 8 61 F2 FF FF D1 4E 00 00
   0.118854 2  1               Rx   d 2 02 03
   0.118974 2  61              Rx   d 8 DC 25 00 00 C9 F4 FF FF
   0.119043 2  1               Rx   d 2 03 03
   0.119164 2  62              Rx   d 8 F4 5B 00 00 00 00 00 00
   0.119234 2  1               Rx   d 2 04 03
   0.119356 2  63              Rx   d 8 00 00 00 00 E2 3A 00 00
   0.119425 2  1               Rx   d 2 05 03
   0.119545 2  64              Rx   d 8 C4 0E 00 00 F7 5C 00 00
   0.119613 2  1               Rx   d 2 06 03
   0.119734 2  65              Rx   d 8 E1 DC FF FF 82 1F 00 00
   0.119804 2  1               Rx   d 2 07 03
   0.119880 1  1               Rx   d 2 08 03
   0.119924 2  66              Rx   d 8 DA 3D FF FF 6B BF FF FF
   0.120007 1  68              Rx   d 8 35 FF FF FF F1 C9 FF FF
   0.120044 2  67              Rx   d 8 5B F7 FF FF 1F 31 00 00
   0.120075 1  1               Rx   d 2 09 03
   0.120201 1  69              Rx   d 8 BF FF FF FF CD 03 00 00
   0.120269 1  1               Rx   d 2 0A 03
   0.120392 1  6A              Rx   d 8 16 68 00 00 9E 13 00 00
   0.120461 1  1               Rx   d 2 0B 03
   0.120533 1  1               Rx   d 2 20 03
   0.120653 1  6B              Rx   d 8 6A FF FF FF 2D 02 00 00
   0.120720 1  1               Rx   d 2 21 03
   0.120827 1  80              Rx   d 6 0C 00 FF FF 02 00
   0.120895 1  1               Rx   d 2 22 03
   0.121001 1  81              Rx   d 6 00 00 04 00 00 00
   0.121068 1  1               Rx   d 2 23 03
   0.121141 1  1               Rx   d 2 24 03
   0.121264 1  83              Rx   d 8 11 50 FF FF 00 00 00 00
   0.121331 1  1               Rx   d 2 25 03
   0.121432 1  84              Rx   d 6 94 00 92 01 DE FE
   0.128584 2  1               Rx   d 2 00 03
   0.128657 2  1               Rx   d 2 01 03
   0.128777 2  60              Rx   d 8 61 F2 FF FF D1 4E 00 00
   0.128845 2  1               Rx   d 2 02 03
   0.128965 2  61              Rx   d 8 DC 25 00 00 C9 F4 FF FF
   0.129034 2  1               Rx   d 2 03 03
   0.129155 2  62              Rx   d 8 F4 5B 00 00 00 00 00 00
   0.129225 2  1               Rx   d 2 04 03
   0.129348 2  63              Rx   d 8 00 00 00 00 E2 3A 00 00
   0.129417 2  1               Rx   d 2 05 03
   0.129537 2  64              Rx   d 8 C4 0E 00 00 F7 5C 00 00
   0.129605 2  1               Rx   d 2 06 03
   0.129726 2  65              Rx   d 8 E1 DC FF FF 82 1F 00 00
   0.129796 2  1               Rx   d 2 07 03
   0.129872 1  1               Rx   d 2 08 03
   0.129915 2  66              Rx   d 8 DA 3D FF FF 6B BF FF FF
   0.129998 1  68              Rx   d 8 35 FF FF FF F1 C9 FF FF
   0.130035 2  67              Rx   d 8 5B F7 FF FF 1F 31 00 00
   0.130066 1  1               Rx   d 2 09 03
   0.130138 1  1               Rx   d 2 0A 03
   0.130260 1  69              Rx   d 8 BF FF FF FF CD 03 00 00
   0.130329 1  1               Rx   d 2 0B 03
   0.130449 1  6A              Rx   d 8 16 68 00 00 9E 13 00 00
   0.130517 1  1               Rx   d 2 20 03
   0.130637 1  6B              Rx   d 8 6A FF FF FF 2D 02 00 00
   0.130704 1  1               Rx   d 2 21 03
   0.130811 1  80              Rx   d 6 0C 00 FF FF 02 00
   0.130880 1  1               Rx   d 2 22 03
   0.130986 1  81              Rx   d 6 00 00 04 00 00 00
   0.131053 1  1               Rx   d 2 23 03
   0.131179 1  83              Rx   d 8 11 50 FF FF 00 00 00 00
   0.131247 1  1               Rx   d 2 24 03
   0.131319 1  1               Rx   d 2 25 03
   0.131420 1  84              Rx   d 6 94 00 92 01 DE FE
   0.138575 2  1               Rx   d 2 00 03
   0.138699 2  60              Rx   d 8 61 F2 FF FF D1 4E 00 00
   0.138768 2  1               Rx   d 2 01 03
   0.138840 2  1               Rx   d 2 02 03
