date Tue Feb 28 01:13:39 am 2012
base hex  timestamps absolute
no internal events logged
// version 7.2.0
   0.006713 2  1               Rx   d 2 00 03
   0.006787 2  1               Rx   d 2 01 03
   0.006909 2  60              Rx   d 8 DB FF FF FF 92 BF FF FF
   0.006977 2  1               Rx   d 2 02 03
   0.007098 2  61              Rx   d 8 1E B0 FF FF 1E 7F FF FF
   0.007167 2  1               Rx   d 2 03 03
   0.007290 2  62              Rx   d 8 39 03 00 00 00 00 00 00
   0.007360 2  1               Rx   d 2 04 03
   0.007483 2  63              Rx   d 8 00 00 00 00 2F 02 00 00
   0.007552 2  1               Rx   d 2 05 03
   0.007675 2  64              Rx   d 8 02 00 00 00 89 DC FF FF
   0.007743 2  1               Rx   d 2 06 03
   0.007864 2  65              Rx   d 8 3F 3C 00 00 F7 7E 00 00
   0.007934 2  1               Rx   d 2 07 03
   0.008010 1  1               Rx   d 2 08 03
   0.008054 2  66              Rx   d 8 57 03 00 00 F8 84 00 00
   0.008136 1  68              Rx   d 8 85 00 00 00 81 BE FF FF
   0.008179 2  67              Rx   d 8 00 00 00 00 00 00 00 00
   0.008204 1  1               Rx   d 2 09 03
   0.008276 1  1               Rx   d 2 0A 03
   0.008398 1  69              Rx   d 8 BF FF FF FF C9 03 00 00
   0.008467 1  1               Rx   d 2 0B 03
   0.008587 1  6A              Rx   d 8 15 12 00 00 40 14 00 00
   0.008655 1  1               Rx   d 2 20 03
   0.008777 1  6B              Rx   d 8 21 00 00 00 92 00 00 00
   0.008844 1  1               Rx   d 2 21 03
   0.008950 1  80              Rx   d 6 08 00 FF FF 02 00
   0.009018 1  1               Rx   d 2 22 03
   0.009124 1  81              Rx   d 6 00 00 04 00 00 00
   0.009191 1  1               Rx   d 2 23 03
   0.009264 1  1               Rx   d 2 24 03
   0.009385 1  83              Rx   d 8 F6 17 01 00 00 00 00 00
   0.009452 1  1               Rx   d 2 25 03
   0.009553 1  84              Rx   d 6 94 00 92 01 DE FE
   0.016704 2  1               Rx   d 2 00 03
   0.016829 2  60              Rx   d 8 DB FF FF FF 92 BF FF FF
   0.016897 2  1               Rx   d 2 01 03
   0.016970 2  1               Rx   d 2 02 03
   0.017091 2  61              Rx   d 8 1E B0 FF FF 1E 7F FF FF
   0.017160 2  1               Rx   d 2 03 03
   0.017283 2  62              Rx   d 8 39 03 00 00 00 00 00 00
   0.017353 2  1               Rx   d 2 04 03
   0.017476 2  63              Rx   d 8 00 00 00 00 2F 02 00 00
   0.017545 2  1               Rx   d 2 05 03
   0.017667 2  64              Rx   d 8 02 00 00 00 89 DC FF FF
   0.017735 2  1               Rx   d 2 06 03
   0.017856 2  65              Rx   d 8 3F 3C 00 00 F7 7E 00 00
   0.017926 2  1               Rx   d 2 07 03
   0.018003 1  1               Rx   d 2 08 03
   0.018047 2  66              Rx   d 8 57 03 00 00 F8 84 00 00
   0.018075 1  1               Rx   d 2 09 03
   0.018172 2  67              Rx   d 8 00 00 00 00 00 00 00 00
   0.018197 1  68              Rx   d 8 85 00 00 00 81 BE FF FF
   0.018265 1  1               Rx   d 2 0A 03
   0.018387 1  69              Rx   d 8 BF FF FF FF C9 03 00 00
   0.018456 1  1               Rx   d 2 0B 03
   0.018576 1  6A              Rx   d 8 15 12 00 00 40 14 00 00
   0.018644 1  1               Rx   d 2 20 03
   0.018767 1  6B              Rx   d 8 21 00 00 00 92 00 00 00
   0.018834 1  1               Rx   d 2 21 03
   0.018940 1  80              Rx   d 6 08 00 FF FF 02 00
   0.019008 1  1               Rx   d 2 22 03
   0.019114 1  81              Rx   d 6 00 00 04 00 00 00
   0.019181 1  1               Rx   d 2 23 03
   0.019306 1  83              Rx   d 8 F6 17 01 00 00 00 00 00
   0.019374 1  1               Rx   d 2 24 03
   0.019446 1  1               Rx   d 2 25 03
   0.019547 1  84              Rx   d 6 94 00 92 01 DE FE
   0.026694 2  1               Rx   d 2 00 03
   0.026819 2  60              Rx   d 8 DB FF FF FF 92 BF FF FF
   0.026887 2  1               Rx   d 2 01 03
   0.026959 2  1               Rx   d 2 02 03
   0.027080 2  61              Rx   d 8 1E B0 FF FF 1E 7F FF FF
   0.027149 2  1               Rx   d 2 03 03
   0.027273 2  62              Rx   d 8 39 03 00 00 00 00 00 00
   0.027343 2  1               Rx   d 2 04 03
   0.027466 2  63              Rx   d 8 00 00 00 00 2F 02 00 00
   0.027535 2  1               Rx   d 2 05 03
   0.027657 2  64              Rx   d 8 02 00 00 00 89 DC FF FF
   0.027725 2  1               Rx   d 2 06 03
   0.027846 2  65              Rx   d 8 3F 3C 00 00 F7 7E 00 00
   0.027916 2  1               Rx   d 2 07 03
   0.027991 1  1               Rx   d 2 08 03
   0.028036 2  66              Rx   d 8 57 03 00 00 F8 84 00 00
   0.028116 1  68              Rx   d 8 85 00 00 00 81 BE FF FF
   0.028161 2  67              Rx   d 8 00 00 00 00 00 00 00 00
   0.028184 1  1               Rx   d 2 09 03
   0.028310 1  69              Rx   d 8 BF FF FF FF C9 03 00 00
   0.028378 1  1               Rx   d 2 0A 03
   0.028501 1  6A              Rx   d 8 15 12 00 00 40 14 00 00
   0.028570 1  1               Rx   d 2 0B 03
   0.028695 1  6B              Rx   d 8 21 00 00 00 92 00 00 00
   0.028763 1  1               Rx   d 2 20 03
   0.028872 1  80              Rx   d 6 08 00 FF FF 02 00
   0.028939 1  1               Rx   d 2 21 03
   0.029048 1  81              Rx   d 6 00 00 04 00 00 00
   0.029116 1  1               Rx   d 2 22 03
   0.029189 1  1               Rx   d 2 23 03
   0.029314 1  83              Rx   d 8 F6 17 01 00 00 00 00 00
   0.029382 1  1               Rx   d 2 24 03
   0.029454 1  1               Rx   d 2 25 03
   0.029556 1  84              Rx   d 6 94 00 92 01 DE FE
   0.036684 2  1               Rx   d 2 00 03
   0.036756 2  1               Rx   d 2 01 03
   0.036879 2  60              Rx   d 8 DB FF FF FF 92 BF FF FF
   0.036947 2  1               Rx   d 2 02 03
   0.037068 2  61              Rx   d 8 1E B0 FF FF 1E 7F FF FF
   0.037137 2  1               Rx   d 2 03 03
   0.037260 2  62              Rx   d 8 39 03 00 00 00 00 00 00
   0.037330 2  1               Rx   d 2 04 03
   0.037453 2  63              Rx   d 8 00 00 00 00 2F 02 00 00
   0.037522 2  1               Rx   d 2 05 03
   0.037644 2  64              Rx   d 8 02 00 00 00 89 DC FF FF
   0.037712 2  1               Rx   d 2 06 03
   0.037833 2  65              Rx   d 8 3F 3C 00 00 F7 7E 00 00
   0.037904 2  1               Rx   d 2 07 03
   0.037979 1  1               Rx   d 2 08 03
   0.038024 2  66              Rx   d 8 57 03 00 00 F8 84 00 00
   0.038052 1  1               Rx   d 2 09 03
   0.038149 2  67              Rx   d 8 00 00 00 00 00 00 00 00
   0.038174 1  68              Rx   d 8 85 00 00 00 81 BE FF FF
   0.038242 1  1               Rx   d 2 0A 03
   0.038364 1  69              Rx   d 8 BF FF FF FF C9 03 00 00
   0.038433 1  1               Rx   d 2 0B 03
   0.038553 1  6A              Rx   d 8 15 12 00 00 40 14 00 00
   0.038621 1  1               Rx   d 2 20 03
   0.038743 1  6B              Rx   d 8 21 00 00 00 92 00 00 00
   0.038810 1  1               Rx   d 2 21 03
   0.038916 1  80              Rx   d 6 08 00 FF FF 02 00
   0.038985 1  1               Rx   d 2 22 03
   0.039091 1  81              Rx   d 6 00 00 04 00 00 00
   0.039158 1  1               Rx   d 2 23 03
   0.039231 1  1               Rx   d 2 24 03
   0.039352 1  83              Rx   d 8 F6 17 01 00 00 00 00 00
   0.039419 1  1               Rx   d 2 25 03
   0.039520 1  84              Rx   d 6 94 00 92 01 DE FE
   0.046675 2  1               Rx   d 2 00 03
   0.046748 2  1               Rx   d 2 01 03
   0.046870 2  60              Rx   d 8 DB FF FF FF 92 BF FF FF
   0.046938 2  1               Rx   d 2 02 03
   0.047059 2  61              Rx   d 8 1E B0 FF FF 1E 7F FF FF
   0.047128 2  1               Rx   d 2 03 03
   0.047251 2  62              Rx   d 8 39 03 00 00 00 00 00 00
   0.047321 2  1               Rx   d 2 04 03
   0.047445 2  63              Rx   d 8 00 00 00 00 2F 02 00 00
   0.047514 2  1               Rx   d 2 05 03
   0.047636 2  64              Rx   d 8 02 00 00 00 89 DC FF FF
   0.047704 2  1               Rx   d 2 06 03
   0.047825 2  65              Rx   d 8 3F 3C 00 00 F7 7E 00 00
   0.047895 2  1               Rx   d 2 07 03
   0.047970 1  1               Rx   d 2 08 03
   0.048015 2  66              Rx   d 8 57 03 00 00 F8 84 00 00
   0.048043 1  1               Rx   d 2 09 03
   0.048140 2  67              Rx   d 8 00 00 00 00 00 00 00 00
   0.048165 1  68              Rx   d 8 85 00 00 00 81 BE FF FF
   0.048233 1  1               Rx   d 2 0A 03
   0.048355 1  69              Rx   d 8 BF FF FF FF C9 03 00 00
   0.048424 1  1               Rx   d 2 0B 03
   0.048545 1  6A              Rx   d 8 15 12 00 00 40 14 00 00
   0.048613 1  1               Rx   d 2 20 03
   0.048735 1  6B              Rx   d 8 21 00 00 00 92 00 00 00
   0.048802 1  1               Rx   d 2 21 03
   0.048908 1  80              Rx   d 6 08 00 FF FF 02 00
   0.048976 1  1               Rx   d 2 22 03
   0.049082 1  81              Rx   d 6 00 00 04 00 00 00
   0.049149 1  1               Rx   d 2 23 03
   0.049222 1  1               Rx   d 2 24 03
   0.049343 1  83              Rx   d 8 F6 17 01 00 00 00 00 00
   0.049410 1  1               Rx   d 2 25 03
   0.049511 1  84              Rx   d 6 94 00 92 01 DE FE
   0.056663 2  1               Rx   d 2 00 03
   0.056735 2  1               Rx   d 2 01 03
   0.056858 2  60              Rx   d 8 DB FF FF FF 92 BF FF FF
   0.056926 2  1               Rx   d 2 02 03
   0.057047 2  61              Rx   d 8 1E B0 FF FF 1E 7F FF FF
   0.057116 2  1               Rx   d 2 03 03
   0.057239 2  62              Rx   d 8 39 03 00 00 00 00 00 00
   0.057309 2  1               Rx   d 2 04 03
   0.057432 2  63              Rx   d 8 00 00 00 00 2F 02 00 00
   0.057501 2  1               Rx   d 2 05 03
   0.057623 2  64              Rx   d 8 02 00 00 00 89 DC FF FF
   0.057691 2  1               Rx   d 2 06 03
   0.057812 2  65              Rx   d 8 3F 3C 00 00 F7 7E 00 00
   0.057883 2  1               Rx   d 2 07 03
   0.057958 1  1               Rx   d 2 08 03
   0.058003 2  66              Rx   d 8 57 03 00 00 F8 84 00 00
   0.058083 1  68              Rx   d 8 85 00 00 00 81 BE FF FF
   0.058128 2  67              Rx   d 8 00 00 00 00 00 00 00 00
   0.058151 1  1               Rx   d 2 09 03
   0.058224 1  1               Rx   d 2 0A 03
   0.058346 1  69              Rx   d 8 BF FF FF FF C9 03 00 00
   0.058415 1  1               Rx   d 2 0B 03
   0.058535 1  6A              Rx   d 8 15 12 00 00 40 14 00 00
   0.058603 1  1               Rx   d 2 20 03
   0.058725 1  6B              Rx   d 8 21 00 00 00 92 00 00 00
   0.058792 1  1               Rx   d 2 21 03
   0.058898 1  80              Rx   d 6 08 00 FF FF 02 00
   0.058966 1  1               Rx   d 2 22 03
   0.059072 1  81              Rx   d 6 00 00 04 00 00 00
   0.059139 1  1               Rx   d 2 23 03
   0.059211 1  1               Rx   d 2 24 03
   0.059333 1  83              Rx   d 8 F6 17 01 00 00 00 00 00
   0.059400 1  1               Rx   d 2 25 03
   0.059501 1  84              Rx   d 6 94 00 92 01 DE FE
   0.066654 2  1               Rx   d 2 00 03
   0.066780 2  60              Rx   d 8 DB FF FF FF 92 BF FF FF
   0.066848 2  1               Rx   d 2 01 03
   0.066972 2  61              Rx   d 8 1E B0 FF FF 1E 7F FF FF
   0.067040 2  1               Rx   d 2 02 03
   0.067167 2  62              Rx   d 8 39 03 00 00 00 00 00 00
   0.067236 2  1               Rx   d 2 03 03
   0.067312 2  1               Rx   d 2 04 03
   0.067435 2  63              Rx   d 8 00 00 00 00 2F 02 00 00
   0.067504 2  1               Rx   d 2 05 03
   0.067626 2  64              Rx   d 8 02 00 00 00 89 DC FF FF
   0.067694 2  1               Rx   d 2 06 03
   0.067815 2  65              Rx   d 8 3F 3C 00 00 F7 7E 00 00
   0.067885 2  1               Rx   d 2 07 03
   0.067962 1  1               Rx   d 2 08 03
   0.068005 2  66              Rx   d 8 57 03 00 00 F8 84 00 00
   0.068087 1  68              Rx   d 8 85 00 00 00 81 BE FF FF
   0.068130 2  67              Rx   d 8 00 00 00 00 00 00 00 00
   0.068155 1  1               Rx   d 2 09 03
   0.068281 1  69              Rx   d 8 BF FF FF FF C9 03 00 00
   0.068349 1  1               Rx   d 2 0A 03
   0.068473 1  6A              Rx   d 8 15 12 00 00 40 14 00 00
   0.068542 1  1               Rx   d 2 0B 03
   0.068614 1  1               Rx   d 2 20 03
   0.068736 1  6B              Rx   d 8 21 00 00 00 92 00 00 00
   0.068803 1  1               Rx   d 2 21 03
   0.068909 1  80              Rx   d 6 08 00 FF FF 02 00
   0.068977 1  1               Rx   d 2 22 03
   0.069084 1  81              Rx   d 6 00 00 04 00 00 00
   0.069151 1  1               Rx   d 2 23 03
   0.069276 1  83              Rx   d 8 F6 17 01 00 00 00 00 00
   0.069344 1  1               Rx   d 2 24 03
   0.069448 1  84              Rx   d 6 94 00 92 01 DE FE
   0.069515 1  1               Rx   d 2 25 03
   0.076644 2  1               Rx   d 2 00 03
   0.076770 2  60              Rx   d 8 DB FF FF FF 92 BF FF FF
   0.076838 2  1               Rx   d 2 01 03
   0.076911 2  1               Rx   d 2 02 03
   0.077032 2  61              Rx   d 8 1E B0 FF FF 1E 7F FF FF
   0.077101 2  1               Rx   d 2 03 03
   0.077224 2  62              Rx   d 8 39 03 00 00 00 00 00 00
   0.077294 2  1               Rx   d 2 04 03
   0.077418 2  63              Rx   d 8 00 00 00 00 2F 02 00 00
   0.077487 2  1               Rx   d 2 05 03
   0.077609 2  64              Rx   d 8 02 00 00 00 89 DC FF FF
   0.077677 2  1               Rx   d 2 06 03
   0.077798 2  65              Rx   d 8 3F 3C 00 00 F7 7E 00 00
   0.077868 2  1               Rx   d 2 07 03
   0.077943 1  1               Rx   d 2 08 03
   0.077988 2  66              Rx   d 8 57 03 00 00 F8 84 00 00
   0.078068 1  68              Rx   d 8 85 00 00 00 81 BE FF FF
   0.078113 2  67              Rx   d 8 00 00 00 00 00 00 00 00
   0.078136 1  1               Rx   d 2 09 03
   0.078261 1  69              Rx   d 8 BF FF FF FF C9 03 00 00
   0.078329 1  1               Rx   d 2 0A 03
   0.078453 1  6A              Rx   d 8 15 12 00 00 40 14 00 00
   0.078522 1  1               Rx   d 2 0B 03
   0.078648 1  6B              Rx   d 8 21 00 00 00 92 00 00 00
   0.078716 1  1               Rx   d 2 20 03
   0.078825 1  80              Rx   d 6 08 00 FF FF 02 00
   0.078892 1  1               Rx   d 2 21 03
   0.079001 1  81              Rx   d 6 00 00 04 00 00 00
   0.079069 1  1               Rx   d 2 22 03
   0.079141 1  1               Rx   d 2 23 03
   0.079266 1  83              Rx   d 8 F6 17 01 00 00 00 00 00
   0.079334 1  1               Rx   d 2 24 03
   0.079406 1  1               Rx   d 2 25 03
   0.079507 1  84              Rx   d 6 94 00 92 01 DE FE
   0.086635 2  1               Rx   d 2 00 03
   0.086761 2  60              Rx   d 8 DB FF FF FF 92 BF FF FF
   0.086829 2  1               Rx   d 2 01 03
   0.086902 2  1               Rx   d 2 02 03
   0.087024 2  61              Rx   d 8 1E B0 FF FF 1E 7F FF FF
   0.087093 2  1               Rx   d 2 03 03
   0.087216 2  62              Rx   d 8 39 03 00 00 00 00 00 00
   0.087286 2  1               Rx   d 2 04 03
   0.087409 2  63              Rx   d 8 00 00 00 00 2F 02 00 00
   0.087478 2  1               Rx   d 2 05 03
   0.087600 2  64              Rx   d 8 02 00 00 00 89 DC FF FF
   0.087668 2  1               Rx   d 2 06 03
   0.087789 2  65              Rx   d 8 3F 3C 00 00 F7 7E 00 00
   0.087859 2  1               Rx   d 2 07 03
   0.087934 1  1               Rx   d 2 08 03
   0.087980 2  66              Rx   d 8 57 03 00 00 F8 84 00 00
   0.088008 1  1               Rx   d 2 09 03
   0.088105 2  67              Rx   d 8 00 00 00 00 00 00 00 00
   0.088130 1  68              Rx   d 8 85 00 00 00 81 BE FF FF
   0.088198 1  1               Rx   d 2 0A 03
   0.088320 1  69              Rx   d 8 BF FF FF FF C9 03 00 00
   0.088389 1  1               Rx   d 2 0B 03
   0.088509 1  6A              Rx   d 8 15 12 00 00 40 14 00 00
   0.088577 1  1               Rx   d 2 20 03
   0.088699 1  6B              Rx   d 8 21 00 00 00 92 00 00 00
   0.088766 1  1               Rx   d 2 21 03
   0.088872 1  80              Rx   d 6 08 00 FF FF 02 00
   0.088940 1  1               Rx   d 2 22 03
   0.089047 1  81              Rx   d 6 00 00 04 00 00 00
   0.089114 1  1               Rx   d 2 23 03
   0.089187 1  1               Rx   d 2 24 03
   0.089308 1  83              Rx   d 8 F6 17 01 00 00 00 00 00
   0.089375 1  1               Rx   d 2 25 03
   0.089476 1  84              Rx   d 6 94 00 92 01 DE FE
   0.096626 2  1               Rx   d 2 00 03
   0.096698 2  1               Rx   d 2 01 03
   0.096820 2  60              Rx   d 8 DB FF FF FF 92 BF FF FF
   0.096888 2  1               Rx   d 2 02 03
   0.097009 2  61              Rx   d 8 1E B0 FF FF 1E 7F FF FF
   0.097078 2  1               Rx   d 2 03 03
   0.097201 2  62              Rx   d 8 39 03 00 00 00 00 00 00
   0.097271 2  1               Rx   d 2 04 03
   0.097395 2  63              Rx   d 8 00 00 00 00 2F 02 00 00
   0.097464 2  1               Rx   d 2 05 03
   0.097586 2  64              Rx   d 8 02 00 00 00 89 DC FF FF
   0.097654 2  1               Rx   d 2 06 03
   0.097775 2  65              Rx   d 8 3F 3C 00 00 F7 7E 00 00
   0.097845 2  1               Rx   d 2 07 03
   0.097920 1  1               Rx   d 2 08 03
   0.097965 2  66              Rx   d 8 57 03 00 00 F8 84 00 00
   0.098046 1  68              Rx   d 8 85 00 00 00 81 BE FF FF
   0.098090 2  67              Rx   d 8 00 00 00 00 00 00 00 00
   0.098114 1  1               Rx   d 2 09 03
   0.098240 1  69              Rx   d 8 BF FF FF FF C9 03 00 00
   0.098308 1  1               Rx   d 2 0A 03
   0.098382 1  1               Rx   d 2 0B 03
   0.098502 1  6A              Rx   d 8 15 12 00 00 40 14 00 00
   0.098570 1  1               Rx   d 2 20 03
   0.098692 1  6B              Rx   d 8 21 00 00 00 92 00 00 00
   0.098760 1  1               Rx   d 2 21 03
   0.098866 1  80              Rx   d 6 08 00 FF FF 02 00
   0.098934 1  1               Rx   d 2 22 03
   0.099040 1  81              Rx   d 6 00 00 04 00 00 00
   0.099107 1  1               Rx   d 2 23 03
   0.099180 1  1               Rx   d 2 24 03
   0.099301 1  83              Rx   d 8 F6 17 01 00 00 00 00 00
   0.099368 1  1               Rx   d 2 25 03
   0.099469 1  84              Rx   d 6 94 00 92 01 DE FE
   0.106613 2  1               Rx   d 2 00 03
   0.106739 2  60              Rx   d 8 DB FF FF FF 92 BF FF FF
   0.106808 2  1               Rx   d 2 01 03
   0.106881 2  1               Rx   d 2 02 03
   0.107002 2  61              Rx   d 8 1E B0 FF FF 1E 7F FF FF
   0.107071 2  1               Rx   d 2 03 03
   0.107194 2  62              Rx   d 8 39 03 00 00 00 00 00 00
   0.107264 2  1               Rx   d 2 04 03
   0.107387 2  63              Rx   d 8 00 00 00 00 2F 02 00 00
   0.107456 2  1               Rx   d 2 05 03
   0.107579 2  64              Rx   d 8 02 00 00 00 89 DC FF FF
   0.107647 2  1               Rx   d 2 06 03
   0.107768 2  65              Rx   d 8 3F 3C 00 00 F7 7E 00 00
   0.107838 2  1               Rx   d 2 07 03
   0.107914 1  1               Rx   d 2 08 03
   0.107958 2  66              Rx   d 8 57 03 00 00 F8 84 00 00
   0.108039 1  68              Rx   d 8 85 00 00 00 81 BE FF FF
   0.108083 2  67              Rx   d 8 00 00 00 00 00 00 00 00
   0.108107 1  1               Rx   d 2 09 03
   0.108233 1  69              Rx   d 8 BF FF FF FF C9 03 00 00
   0.108302 1  1               Rx   d 2 0A 03
   0.108375 1  1               Rx   d 2 0B 03
   0.108495 1  6A              Rx   d 8 15 12 00 00 40 14 00 00
   0.108563 1  1               Rx   d 2 20 03
   0.108685 1  6B              Rx   d 8 21 00 00 00 92 00 00 00
   0.108752 1  1               Rx   d 2 21 03
   0.108858 1  80              Rx   d 6 08 00 FF FF 02 00
   0.108926 1  1               Rx   d 2 22 03
   0.109032 1  81              Rx   d 6 00 00 04 00 00 00
   0.109099 1  1               Rx   d 2 23 03
   0.109225 1  83              Rx   d 8 F6 17 01 00 00 00 00 00
   0.109293 1  1               Rx   d 2 24 03
   0.109365 1  1               Rx   d 2 25 03
   0.109466 1  84              Rx   d 6 94 00 92 01 DE FE
   0.116603 2  1               Rx   d 2 00 03
   0.116729 2  60              Rx   d 8 DB FF FF FF 92 BF FF FF
   0.116797 2  1               Rx   d 2 01 03
   0.116922 2  61              Rx   d 8 1E B0 FF FF 1E 7F FF FF
   0.116991 2  1               Rx   d 2 02 03
   0.117118 2  62              Rx   d 8 39 03 00 00 00 00 00 00
   0.117187 2  1               Rx   d 2 03 03
   0.117314 2  63              Rx   d 8 00 00 00 00 2F 02 00 00
   0.117384 2  1               Rx   d 2 04 03
   0.117457 2  1               Rx   d 2 05 03
   0.117579 2  64              Rx   d 8 02 00 00 00 89 DC FF FF
   0.117647 2  1               Rx   d 2 06 03
   0.117768 2  65              Rx   d 8 3F 3C 00 00 F7 7E 00 00
   0.117839 2  1               Rx   d 2 07 03
   0.117913 1  1               Rx   d 2 08 03
   0.117959 2  66              Rx   d 8 57 03 00 00 F8 84 00 00
   0.118039 1  68              Rx   d 8 85 00 00 00 81 BE FF FF
   0.118084 2  67              Rx   d 8 00 00 00 00 00 00 00 00
   0.118107 1  1               Rx   d 2 09 03
   0.118232 1  69              Rx   d 8 BF FF FF FF C9 03 00 00
   0.118300 1  1               Rx   d 2 0A 03
   0.118423 1  6A              Rx   d 8 15 12 00 00 40 14 00 00
   0.118492 1  1               Rx   d 2 0B 03
   0.118565 1  1               Rx   d 2 20 03
   0.118688 1  6B              Rx   d 8 21 00 00 00 92 00 00 00
   0.118755 1  1               Rx   d 2 21 03
   0.118861 1  80              Rx   d 6 08 00 FF FF 02 00
   0.118929 1  1               Rx   d 2 22 03
   0.119035 1  81              Rx   d 6 00 00 04 00 00 00
   0.119102 1  1               Rx   d 2 23 03
   0.119175 1  1               Rx   d 2 24 03
   0.119296 1  83              Rx   d 8 F6 17 01 00 00 00 00 00
   0.119363 1  1               Rx   d 2 25 03
   0.119464 1  84              Rx   d 6 94 00 92 01 DE FE
   0.126594 2  1               Rx   d 2 00 03
   0.126720 2  60              Rx   d 8 DB FF FF FF 92 BF FF FF
   0.126788 2  1               Rx   d 2 01 03
   0.126861 2  1               Rx   d 2 02 03
   0.126982 2  61              Rx   d 8 1E B0 FF FF 1E 7F FF FF
   0.127052 2  1               Rx   d 2 03 03
   0.127175 2  62              Rx   d 8 39 03 00 00 00 00 00 00
   0.127245 2  1               Rx   d 2 04 03
   0.127368 2  63              Rx   d 8 00 00 00 00 2F 02 00 00
   0.127437 2  1               Rx   d 2 05 03
   0.127559 2  64              Rx   d 8 02 00 00 00 89 DC FF FF
   0.127627 2  1               Rx   d 2 06 03
   0.127748 2  65              Rx   d 8 3F 3C 00 00 F7 7E 00 00
   0.127818 2  1               Rx   d 2 07 03
   0.127894 1  1               Rx   d 2 08 03
   0.127938 2  66              Rx   d 8 57 03 00 00 F8 84 00 00
   0.128020 1  68              Rx   d 8 85 00 00 00 81 BE FF FF
   0.128063 2  67              Rx   d 8 00 00 00 00 00 00 00 00
   0.128088 1  1               Rx   d 2 09 03
   0.128213 1  69              Rx   d 8 BF FF FF FF C9 03 00 00
   0.128282 1  1               Rx   d 2 0A 03
   0.128356 1  1               Rx   d 2 0B 03
   0.128476 1  6A              Rx   d 8 15 12 00 00 40 14 00 00
   0.128544 1  1               Rx   d 2 20 03
   0.128666 1  6B              Rx   d 8 21 00 00 00 92 00 00 00
   0.128733 1  1               Rx   d 2 21 03
   0.128839 1  80              Rx   d 6 08 00 FF FF 02 00
   0.128907 1  1               Rx   d 2 22 03
   0.129013 1  81              Rx   d 6 00 00 04 00 00 00
   0.129080 1  1               Rx   d 2 23 03
   0.129152 1  1               Rx   d 2 24 03
   0.129273 1  83              Rx   d 8 F6 17 01 00 00 00 00 00
   0.129341 1  1               Rx   d 2 25 03
   0.129442 1  84              Rx   d 6 94 00 92 01 DE FE
   0.136584 2  1               Rx   d 2 00 03
   0.136710 2  60              Rx   d 8 DB FF FF FF 92 BF FF FF
   0.136778 2  1               Rx   d 2 01 03
   0.136903 2  61              Rx   d 8 1E B0 FF FF 1E 7F FF FF
   0.136971 2  1               Rx   d 2 02 03
   0.137098 2  62              Rx   d 8 39 03 00 00 00 00 00 00
   0.137167 2  1               Rx   d 2 03 03
   0.137294 2  63              Rx   d 8 00 00 00 00 2F 02 00 00
   0.137364 2  1               Rx   d 2 04 03
   0.137491 2  64              Rx   d 8 02 00 00 00 89 DC FF FF
