date Fri Feb 17 12:08:33 am 2012
base hex  timestamps absolute
no internal events logged
// version 7.2.0
   0.134488 1  18              Rx   d 6 00 00 00 00 00 00
   0.134604 1  19              Rx   d 6 00 00 00 00 00 00
   0.134723 1  1A              Rx   d 6 00 00 00 00 00 00
   0.134838 1  1B              Rx   d 6 00 00 00 00 00 00
   0.134956 1  30              Rx   d 6 00 00 00 00 00 00
   0.135073 1  31              Rx   d 6 00 00 00 00 00 00
   0.135192 1  32              Rx   d 6 00 00 00 00 00 00
   0.135308 1  33              Rx   d 6 00 00 00 00 00 00
   0.135447 1  34              Rx   d 8 00 00 00 00 00 00 00 00
   0.135586 1  35              Rx   d 8 00 00 00 00 00 00 00 00
   0.135662 2  1               Rx   d 2 00 03
   0.135791 2  60              Rx   d 8 3C 00 00 00 C1 CC FF FF
   0.135860 2  1               Rx   d 2 01 03
   0.135985 2  61              Rx   d 8 B6 F8 FF FF B8 F8 FF FF
   0.136053 2  1               Rx   d 2 02 03
   0.136126 2  1               Rx   d 2 03 03
   0.136249 2  62              Rx   d 8 7A 00 00 00 00 00 00 00
   0.136319 2  1               Rx   d 2 04 03
   0.136438 2  63              Rx   d 8 1C D1 FF FF B1 EC FF FF
   0.136507 2  1               Rx   d 2 05 03
   0.136629 2  64              Rx   d 8 F6 FF FF FF DE B5 FF FF
   0.136698 2  1               Rx   d 2 06 03
   0.136818 2  65              Rx   d 8 E1 01 00 00 E4 01 00 00
   0.136888 2  1               Rx   d 2 07 03
   0.136964 1  1               Rx   d 2 08 03
   0.137012 2  66              Rx   d 8 09 00 00 00 0A 00 00 00
   0.137090 1  68              Rx   d 8 F6 0A 00 00 01 05 00 00
   0.137132 2  67              Rx   d 8 46 04 00 00 8D E6 FF FF
   0.137158 1  1               Rx   d 2 09 03
   0.137282 1  69              Rx   d 8 35 01 00 00 17 0B 00 00
   0.137350 1  1               Rx   d 2 0A 03
   0.137423 1  1               Rx   d 2 0B 03
   0.137545 1  6A              Rx   d 8 02 05 00 00 8B 0E 00 00
   0.137613 1  1               Rx   d 2 20 03
   0.137736 1  6B              Rx   d 8 01 00 00 00 49 00 00 00
   0.137803 1  1               Rx   d 2 21 03
   0.137905 1  80              Rx   d 6 93 F5 66 FF D5 03
   0.137973 1  1               Rx   d 2 22 03
   0.138078 1  81              Rx   d 6 FF FF 00 00 00 00
   0.138145 1  1               Rx   d 2 23 03
   0.138218 1  1               Rx   d 2 24 03
   0.138339 1  83              Rx   d 8 5D A3 00 00 00 00 00 00
   0.138406 1  1               Rx   d 2 25 03
   0.138506 1  84              Rx   d 6 D3 E8 34 F6 7B FB
   0.338281 1  18              Rx   d 6 00 00 00 00 00 00
   0.338397 1  19              Rx   d 6 00 00 00 00 00 00
   0.338516 1  1A              Rx   d 6 00 00 00 00 00 00
   0.338632 1  1B              Rx   d 6 00 00 00 00 00 00
   0.338749 1  30              Rx   d 6 00 00 00 00 00 00
   0.338866 1  31              Rx   d 6 00 00 00 00 00 00
   0.338984 1  32              Rx   d 6 00 00 00 00 00 00
   0.339101 1  33              Rx   d 6 00 00 00 00 00 00
   0.339242 1  34              Rx   d 8 00 00 00 00 00 00 00 00
   0.339381 1  35              Rx   d 8 00 00 00 00 00 00 00 00
   0.339457 2  1               Rx   d 2 00 03
   0.339585 2  60              Rx   d 8 3C 00 00 00 C1 CC FF FF
   0.339653 2  1               Rx   d 2 01 03
   0.339778 2  61              Rx   d 8 B6 F8 FF FF B8 F8 FF FF
   0.339846 2  1               Rx   d 2 02 03
   0.339974 2  62              Rx   d 8 7A 00 00 00 00 00 00 00
   0.340043 2  1               Rx   d 2 03 03
   0.340118 2  1               Rx   d 2 04 03
   0.340237 2  63              Rx   d 8 1C D1 FF FF B1 EC FF FF
   0.340306 2  1               Rx   d 2 05 03
   0.340428 2  64              Rx   d 8 F6 FF FF FF DE B5 FF FF
   0.340496 2  1               Rx   d 2 06 03
   0.340616 2  65              Rx   d 8 E1 01 00 00 E4 01 00 00
   0.340686 2  1               Rx   d 2 07 03
   0.340762 1  1               Rx   d 2 08 03
   0.340811 2  66              Rx   d 8 09 00 00 00 0A 00 00 00
   0.340834 1  1               Rx   d 2 09 03
   0.340931 2  67              Rx   d 8 46 04 00 00 8D E6 FF FF
   0.340956 1  68              Rx   d 8 F6 0A 00 00 01 05 00 00
   0.341024 1  1               Rx   d 2 0A 03
   0.341145 1  69              Rx   d 8 35 01 00 00 17 0B 00 00
   0.341214 1  1               Rx   d 2 0B 03
   0.341335 1  6A              Rx   d 8 02 05 00 00 8B 0E 00 00
   0.341403 1  1               Rx   d 2 20 03
   0.341526 1  6B              Rx   d 8 01 00 00 00 49 00 00 00
   0.341593 1  1               Rx   d 2 21 03
   0.341696 1  80              Rx   d 6 93 F5 66 FF D5 03
   0.341764 1  1               Rx   d 2 22 03
   0.341869 1  81              Rx   d 6 FF FF 00 00 00 00
   0.341936 1  1               Rx   d 2 23 03
   0.342009 1  1               Rx   d 2 24 03
   0.342130 1  83              Rx   d 8 5D A3 00 00 00 00 00 00
   0.342197 1  1               Rx   d 2 25 03
   0.342297 1  84              Rx   d 6 D3 E8 34 F6 7B FB
   0.542078 1  18              Rx   d 6 00 00 00 00 00 00
   0.542193 1  19              Rx   d 6 00 00 00 00 00 00
   0.542313 1  1A              Rx   d 6 00 00 00 00 00 00
   0.542430 1  1B              Rx   d 6 00 00 00 00 00 00
   0.542548 1  30              Rx   d 6 00 00 00 00 00 00
   0.542666 1  31              Rx   d 6 00 00 00 00 00 00
   0.542784 1  32              Rx   d 6 00 00 00 00 00 00
   0.542900 1  33              Rx   d 6 00 00 00 00 00 00
   0.543039 1  34              Rx   d 8 00 00 00 00 00 00 00 00
   0.543178 1  35              Rx   d 8 00 00 00 00 00 00 00 00
   0.543255 2  1               Rx   d 2 00 03
   0.543383 2  60              Rx   d 8 3C 00 00 00 C1 CC FF FF
   0.543451 2  1               Rx   d 2 01 03
   0.543575 2  61              Rx   d 8 B6 F8 FF FF B8 F8 FF FF
   0.543643 2  1               Rx   d 2 02 03
   0.543770 2  62              Rx   d 8 7A 00 00 00 00 00 00 00
   0.543839 2  1               Rx   d 2 03 03
   0.543914 2  1               Rx   d 2 04 03
   0.544033 2  63              Rx   d 8 1C D1 FF FF B1 EC FF FF
   0.544103 2  1               Rx   d 2 05 03
   0.544225 2  64              Rx   d 8 F6 FF FF FF DE B5 FF FF
   0.544293 2  1               Rx   d 2 06 03
   0.544413 2  65              Rx   d 8 E1 01 00 00 E4 01 00 00
   0.544483 2  1               Rx   d 2 07 03
   0.544560 1  1               Rx   d 2 08 03
   0.544607 2  66              Rx   d 8 09 00 00 00 0A 00 00 00
   0.544685 1  68              Rx   d 8 F6 0A 00 00 01 05 00 00
   0.544727 2  67              Rx   d 8 46 04 00 00 8D E6 FF FF
   0.544753 1  1               Rx   d 2 09 03
   0.544878 1  69              Rx   d 8 35 01 00 00 17 0B 00 00
   0.544946 1  1               Rx   d 2 0A 03
   0.545071 1  6A              Rx   d 8 02 05 00 00 8B 0E 00 00
   0.545140 1  1               Rx   d 2 0B 03
   0.545213 1  1               Rx   d 2 20 03
   0.545336 1  6B              Rx   d 8 01 00 00 00 49 00 00 00
   0.545403 1  1               Rx   d 2 21 03
   0.545505 1  80              Rx   d 6 93 F5 66 FF D5 03
   0.545573 1  1               Rx   d 2 22 03
   0.545678 1  81              Rx   d 6 FF FF 00 00 00 00
   0.545746 1  1               Rx   d 2 23 03
   0.545871 1  83              Rx   d 8 5D A3 00 00 00 00 00 00
   0.545939 1  1               Rx   d 2 24 03
   0.546010 1  1               Rx   d 2 25 03
   0.546110 1  84              Rx   d 6 D3 E8 34 F6 7B FB
   0.745873 1  18              Rx   d 6 00 00 00 00 00 00
   0.745988 1  19              Rx   d 6 00 00 00 00 00 00
   0.746107 1  1A              Rx   d 6 00 00 00 00 00 00
   0.746224 1  1B              Rx   d 6 00 00 00 00 00 00
   0.746341 1  30              Rx   d 6 00 00 00 00 00 00
   0.746459 1  31              Rx   d 6 00 00 00 00 00 00
   0.746576 1  32              Rx   d 6 00 00 00 00 00 00
   0.746692 1  33              Rx   d 6 00 00 00 00 00 00
   0.746831 1  34              Rx   d 8 00 00 00 00 00 00 00 00
   0.746969 1  35              Rx   d 8 00 00 00 00 00 00 00 00
   0.747045 2  1               Rx   d 2 00 03
   0.747118 2  1               Rx   d 2 01 03
   0.747243 2  60              Rx   d 8 3C 00 00 00 C1 CC FF FF
   0.747312 2  1               Rx   d 2 02 03
   0.747433 2  61              Rx   d 8 B6 F8 FF FF B8 F8 FF FF
   0.747502 2  1               Rx   d 2 03 03
   0.747625 2  62              Rx   d 8 7A 00 00 00 00 00 00 00
   0.747695 2  1               Rx   d 2 04 03
   0.747814 2  63              Rx   d 8 1C D1 FF FF B1 EC FF FF
   0.747883 2  1               Rx   d 2 05 03
   0.748005 2  64              Rx   d 8 F6 FF FF FF DE B5 FF FF
   0.748073 2  1               Rx   d 2 06 03
   0.748193 2  65              Rx   d 8 E1 01 00 00 E4 01 00 00
   0.748263 2  1               Rx   d 2 07 03
   0.748339 1  1               Rx   d 2 08 03
   0.748387 2  66              Rx   d 8 09 00 00 00 0A 00 00 00
   0.748465 1  68              Rx   d 8 F6 0A 00 00 01 05 00 00
   0.748508 2  67              Rx   d 8 46 04 00 00 8D E6 FF FF
   0.748533 1  1               Rx   d 2 09 03
   0.748657 1  69              Rx   d 8 35 01 00 00 17 0B 00 00
   0.748725 1  1               Rx   d 2 0A 03
   0.748849 1  6A              Rx   d 8 02 05 00 00 8B 0E 00 00
   0.748918 1  1               Rx   d 2 0B 03
   0.748991 1  1               Rx   d 2 20 03
   0.749114 1  6B              Rx   d 8 01 00 00 00 49 00 00 00
   0.749181 1  1               Rx   d 2 21 03
   0.749283 1  80              Rx   d 6 93 F5 66 FF D5 03
   0.749351 1  1               Rx   d 2 22 03
   0.749456 1  81              Rx   d 6 FF FF 00 00 00 00
   0.749523 1  1               Rx   d 2 23 03
   0.749648 1  83              Rx   d 8 5D A3 00 00 00 00 00 00
   0.749717 1  1               Rx   d 2 24 03
   0.749820 1  84              Rx   d 6 D3 E8 34 F6 7B FB
   0.749887 1  1               Rx   d 2 25 03
   0.949666 1  18              Rx   d 6 00 00 00 00 00 00
   0.949782 1  19              Rx   d 6 00 00 00 00 00 00
   0.949901 1  1A              Rx   d 6 00 00 00 00 00 00
   0.950018 1  1B              Rx   d 6 00 00 00 00 00 00
   0.950135 1  30              Rx   d 6 00 00 00 00 00 00
   0.950253 1  31              Rx   d 6 00 00 00 00 00 00
   0.950371 1  32              Rx   d 6 00 00 00 00 00 00
   0.950488 1  33              Rx   d 6 00 00 00 00 00 00
   0.950628 1  34              Rx   d 8 00 00 00 00 00 00 00 00
   0.950767 1  35              Rx   d 8 00 00 00 00 00 00 00 00
   0.950843 2  1               Rx   d 2 00 03
   0.950916 2  1               Rx   d 2 01 03
   0.951041 2  60              Rx   d 8 3C 00 00 00 C1 CC FF FF
   0.951109 2  1               Rx   d 2 02 03
   0.951230 2  61              Rx   d 8 B6 F8 FF FF B8 F8 FF FF
   0.951299 2  1               Rx   d 2 03 03
   0.951422 2  62              Rx   d 8 7A 00 00 00 00 00 00 00
   0.951492 2  1               Rx   d 2 04 03
   0.951612 2  63              Rx   d 8 1C D1 FF FF B1 EC FF FF
   0.951681 2  1               Rx   d 2 05 03
   0.951803 2  64              Rx   d 8 F6 FF FF FF DE B5 FF FF
   0.951871 2  1               Rx   d 2 06 03
   0.951991 2  65              Rx   d 8 E1 01 00 00 E4 01 00 00
   0.952061 2  1               Rx   d 2 07 03
   0.952137 1  1               Rx   d 2 08 03
   0.952185 2  66              Rx   d 8 09 00 00 00 0A 00 00 00
   0.952263 1  68              Rx   d 8 F6 0A 00 00 01 05 00 00
   0.952305 2  67              Rx   d 8 46 04 00 00 8D E6 FF FF
   0.952331 1  1               Rx   d 2 09 03
   0.952404 1  1               Rx   d 2 0A 03
   0.952526 1  69              Rx   d 8 35 01 00 00 17 0B 00 00
   0.952595 1  1               Rx   d 2 0B 03
   0.952716 1  6A              Rx   d 8 02 05 00 00 8B 0E 00 00
   0.952784 1  1               Rx   d 2 20 03
   0.952907 1  6B              Rx   d 8 01 00 00 00 49 00 00 00
   0.952974 1  1               Rx   d 2 21 03
   0.953076 1  80              Rx   d 6 93 F5 66 FF D5 03
   0.953144 1  1               Rx   d 2 22 03
   0.953249 1  81              Rx   d 6 FF FF 00 00 00 00
   0.953316 1  1               Rx   d 2 23 03
   0.953388 1  1               Rx   d 2 24 03
   0.953509 1  83              Rx   d 8 5D A3 00 00 00 00 00 00
   0.953576 1  1               Rx   d 2 25 03
   0.953677 1  84              Rx   d 6 D3 E8 34 F6 7B FB
   1.153463 1  18              Rx   d 6 00 00 00 00 00 00
   1.153578 1  19              Rx   d 6 00 00 00 00 00 00
   1.153697 1  1A              Rx   d 6 00 00 00 00 00 00
   1.153814 1  1B              Rx   d 6 00 00 00 00 00 00
   1.153931 1  30              Rx   d 6 00 00 00 00 00 00
   1.154049 1  31              Rx   d 6 00 00 00 00 00 00
   1.154167 1  32              Rx   d 6 00 00 00 00 00 00
   1.154283 1  33              Rx   d 6 00 00 00 00 00 00
   1.154422 1  34              Rx   d 8 00 00 00 00 00 00 00 00
   1.154559 1  35              Rx   d 8 00 00 00 00 00 00 00 00
   1.154635 2  1               Rx   d 2 00 03
   1.154708 2  1               Rx   d 2 01 03
   1.154833 2  60              Rx   d 8 3C 00 00 00 C1 CC FF FF
   1.154901 2  1               Rx   d 2 02 03
   1.155022 2  61              Rx   d 8 B6 F8 FF FF B8 F8 FF FF
   1.155091 2  1               Rx   d 2 03 03
   1.155214 2  62              Rx   d 8 7A 00 00 00 00 00 00 00
   1.155284 2  1               Rx   d 2 04 03
   1.155403 2  63              Rx   d 8 1C D1 FF FF B1 EC FF FF
   1.155472 2  1               Rx   d 2 05 03
   1.155595 2  64              Rx   d 8 F6 FF FF FF DE B5 FF FF
   1.155663 2  1               Rx   d 2 06 03
   1.155783 2  65              Rx   d 8 E1 01 00 00 E4 01 00 00
   1.155853 2  1               Rx   d 2 07 03
   1.155928 1  1               Rx   d 2 08 03
   1.155977 2  66              Rx   d 8 09 00 00 00 0A 00 00 00
   1.156053 1  68              Rx   d 8 F6 0A 00 00 01 05 00 00
   1.156097 2  67              Rx   d 8 46 04 00 00 8D E6 FF FF
   1.156121 1  1               Rx   d 2 09 03
   1.156193 1  1               Rx   d 2 0A 03
   1.156314 1  69              Rx   d 8 35 01 00 00 17 0B 00 00
   1.156383 1  1               Rx   d 2 0B 03
   1.156504 1  6A              Rx   d 8 02 05 00 00 8B 0E 00 00
   1.156573 1  1               Rx   d 2 20 03
   1.156696 1  6B              Rx   d 8 01 00 00 00 49 00 00 00
   1.156763 1  1               Rx   d 2 21 03
   1.156865 1  80              Rx   d 6 93 F5 66 FF D5 03
   1.156933 1  1               Rx   d 2 22 03
   1.157038 1  81              Rx   d 6 FF FF 00 00 00 00
   1.157105 1  1               Rx   d 2 23 03
   1.157230 1  83              Rx   d 8 5D A3 00 00 00 00 00 00
   1.157298 1  1               Rx   d 2 24 03
   1.157401 1  84              Rx   d 6 D3 E8 34 F6 7B FB
   1.157468 1  1               Rx   d 2 25 03
   1.357258 1  18              Rx   d 6 00 00 00 00 00 00
   1.357374 1  19              Rx   d 6 00 00 00 00 00 00
   1.357493 1  1A              Rx   d 6 00 00 00 00 00 00
   1.357608 1  1B              Rx   d 6 00 00 00 00 00 00
   1.357726 1  30              Rx   d 6 00 00 00 00 00 00
   1.357843 1  31              Rx   d 6 00 00 00 00 00 00
   1.357961 1  32              Rx   d 6 00 00 00 00 00 00
   1.358077 1  33              Rx   d 6 00 00 00 00 00 00
   1.358217 1  34              Rx   d 8 00 00 00 00 00 00 00 00
   1.358356 1  35              Rx   d 8 00 00 00 00 00 00 00 00
   1.358432 2  1               Rx   d 2 00 03
   1.358560 2  60              Rx   d 8 3C 00 00 00 C1 CC FF FF
   1.358628 2  1               Rx   d 2 01 03
   1.358753 2  61              Rx   d 8 B6 F8 FF FF B8 F8 FF FF
   1.358821 2  1               Rx   d 2 02 03
   1.358896 2  1               Rx   d 2 03 03
   1.359019 2  62              Rx   d 8 7A 00 00 00 00 00 00 00
   1.359089 2  1               Rx   d 2 04 03
   1.359208 2  63              Rx   d 8 1C D1 FF FF B1 EC FF FF
   1.359277 2  1               Rx   d 2 05 03
   1.359399 2  64              Rx   d 8 F6 FF FF FF DE B5 FF FF
   1.359467 2  1               Rx   d 2 06 03
   1.359587 2  65              Rx   d 8 E1 01 00 00 E4 01 00 00
   1.359657 2  1               Rx   d 2 07 03
   1.359733 1  1               Rx   d 2 08 03
   1.359781 2  66              Rx   d 8 09 00 00 00 0A 00 00 00
   1.359858 1  68              Rx   d 8 F6 0A 00 00 01 05 00 00
   1.359901 2  67              Rx   d 8 46 04 00 00 8D E6 FF FF
   1.359926 1  1               Rx   d 2 09 03
   1.359998 1  1               Rx   d 2 0A 03
   1.360119 1  69              Rx   d 8 35 01 00 00 17 0B 00 00
   1.360188 1  1               Rx   d 2 0B 03
   1.360309 1  6A              Rx   d 8 02 05 00 00 8B 0E 00 00
   1.360377 1  1               Rx   d 2 20 03
   1.360500 1  6B              Rx   d 8 01 00 00 00 49 00 00 00
   1.360567 1  1               Rx   d 2 21 03
   1.360670 1  80              Rx   d 6 93 F5 66 FF D5 03
   1.360738 1  1               Rx   d 2 22 03
   1.360843 1  81              Rx   d 6 FF FF 00 00 00 00
   1.360910 1  1               Rx   d 2 23 03
   1.361035 1  83              Rx   d 8 5D A3 00 00 00 00 00 00
   1.361103 1  1               Rx   d 2 24 03
   1.361206 1  84              Rx   d 6 D3 E8 34 F6 7B FB
   1.361273 1  1               Rx   d 2 25 03
   1.561051 1  18              Rx   d 6 00 00 00 00 00 00
   1.561166 1  19              Rx   d 6 00 00 00 00 00 00
   1.561284 1  1A              Rx   d 6 00 00 00 00 00 00
   1.561402 1  1B              Rx   d 6 00 00 00 00 00 00
   1.561519 1  30              Rx   d 6 00 00 00 00 00 00
   1.561636 1  31              Rx   d 6 00 00 00 00 00 00
   1.561754 1  32              Rx   d 6 00 00 00 00 00 00
   1.561871 1  33              Rx   d 6 00 00 00 00 00 00
   1.562010 1  34              Rx   d 8 00 00 00 00 00 00 00 00
   1.562149 1  35              Rx   d 8 00 00 00 00 00 00 00 00
   1.562225 2  1               Rx   d 2 00 03
   1.562354 2  60              Rx   d 8 3C 00 00 00 C1 CC FF FF
   1.562422 2  1               Rx   d 2 01 03
   1.562547 2  61              Rx   d 8 B6 F8 FF FF B8 F8 FF FF
   1.562615 2  1               Rx   d 2 02 03
   1.562741 2  62              Rx   d 8 7A 00 00 00 00 00 00 00
   1.562810 2  1               Rx   d 2 03 03
   1.562884 2  1               Rx   d 2 04 03
   1.563003 2  63              Rx   d 8 1C D1 FF FF B1 EC FF FF
   1.563073 2  1               Rx   d 2 05 03
   1.563195 2  64              Rx   d 8 F6 FF FF FF DE B5 FF FF
   1.563263 2  1               Rx   d 2 06 03
   1.563383 2  65              Rx   d 8 E1 01 00 00 E4 01 00 00
   1.563453 2  1               Rx   d 2 07 03
   1.563528 1  1               Rx   d 2 08 03
   1.563577 2  66              Rx   d 8 09 00 00 00 0A 00 00 00
   1.563601 1  1               Rx   d 2 09 03
   1.563697 2  67              Rx   d 8 46 04 00 00 8D E6 FF FF
   1.563723 1  68              Rx   d 8 F6 0A 00 00 01 05 00 00
   1.563791 1  1               Rx   d 2 0A 03
   1.563912 1  69              Rx   d 8 35 01 00 00 17 0B 00 00
   1.563981 1  1               Rx   d 2 0B 03
   1.564102 1  6A              Rx   d 8 02 05 00 00 8B 0E 00 00
   1.564170 1  1               Rx   d 2 20 03
   1.564293 1  6B              Rx   d 8 01 00 00 00 49 00 00 00
   1.564360 1  1               Rx   d 2 21 03
   1.564462 1  80              Rx   d 6 93 F5 66 FF D5 03
   1.564530 1  1               Rx   d 2 22 03
   1.564635 1  81              Rx   d 6 FF FF 00 00 00 00
   1.564703 1  1               Rx   d 2 23 03
   1.564828 1  83              Rx   d 8 5D A3 00 00 00 00 00 00
   1.564896 1  1               Rx   d 2 24 03
   1.564999 1  84              Rx   d 6 D3 E8 34 F6 7B FB
   1.565066 1  1               Rx   d 2 25 03
   1.764847 1  18              Rx   d 6 00 00 00 00 00 00
   1.764963 1  19              Rx   d 6 00 00 00 00 00 00
   1.765082 1  1A              Rx   d 6 00 00 00 00 00 00
   1.765198 1  1B              Rx   d 6 00 00 00 00 00 00
   1.765317 1  30              Rx   d 6 00 00 00 00 00 00
   1.765434 1  31              Rx   d 6 00 00 00 00 00 00
   1.765551 1  32              Rx   d 6 00 00 00 00 00 00
   1.765668 1  33              Rx   d 6 00 00 00 00 00 00
   1.765807 1  34              Rx   d 8 00 00 00 00 00 00 00 00
   1.765945 1  35              Rx   d 8 00 00 00 00 00 00 00 00
   1.766021 2  1               Rx   d 2 00 03
   1.766149 2  60              Rx   d 8 3C 00 00 00 C1 CC FF FF
   1.766218 2  1               Rx   d 2 01 03
   1.766342 2  61              Rx   d 8 B6 F8 FF FF B8 F8 FF FF
   1.766410 2  1               Rx   d 2 02 03
   1.766537 2  62              Rx   d 8 7A 00 00 00 00 00 00 00
   1.766606 2  1               Rx   d 2 03 03
   1.766681 2  1               Rx   d 2 04 03
   1.766800 2  63              Rx   d 8 1C D1 FF FF B1 EC FF FF
   1.766869 2  1               Rx   d 2 05 03
   1.766991 2  64              Rx   d 8 F6 FF FF FF DE B5 FF FF
   1.767059 2  1               Rx   d 2 06 03
   1.767180 2  65              Rx   d 8 E1 01 00 00 E4 01 00 00
   1.767250 2  1               Rx   d 2 07 03
   1.767325 1  1               Rx   d 2 08 03
   1.767374 2  66              Rx   d 8 09 00 00 00 0A 00 00 00
   1.767450 1  68              Rx   d 8 F6 0A 00 00 01 05 00 00
   1.767494 2  67              Rx   d 8 46 04 00 00 8D E6 FF FF
   1.767518 1  1               Rx   d 2 09 03
   1.767644 1  69              Rx   d 8 35 01 00 00 17 0B 00 00
   1.767712 1  1               Rx   d 2 0A 03
   1.767786 1  1               Rx   d 2 0B 03
   1.767907 1  6A              Rx   d 8 02 05 00 00 8B 0E 00 00
   1.767975 1  1               Rx   d 2 20 03
   1.768098 1  6B              Rx   d 8 01 00 00 00 49 00 00 00
   1.768165 1  1               Rx   d 2 21 03
   1.768267 1  80              Rx   d 6 93 F5 66 FF D5 03
   1.768335 1  1               Rx   d 2 22 03
   1.768440 1  81              Rx   d 6 FF FF 00 00 00 00
   1.768507 1  1               Rx   d 2 23 03
   1.768632 1  83              Rx   d 8 5D A3 00 00 00 00 00 00
   1.768700 1  1               Rx   d 2 24 03
   1.768805 1  84              Rx   d 6 D3 E8 34 F6 7B FB
   1.768872 1  1               Rx   d 2 25 03
   1.968642 1  18              Rx   d 6 00 00 00 00 00 00
   1.968757 1  19              Rx   d 6 00 00 00 00 00 00
   1.968875 1  1A              Rx   d 6 00 00 00 00 00 00
   1.968992 1  1B              Rx   d 6 00 00 00 00 00 00
   1.969110 1  30              Rx   d 6 00 00 00 00 00 00
   1.969228 1  31              Rx   d 6 00 00 00 00 00 00
   1.969347 1  32              Rx   d 6 00 00 00 00 00 00
   1.969463 1  33              Rx   d 6 00 00 00 00 00 00
   1.969601 1  34              Rx   d 8 00 00 00 00 00 00 00 00
   1.969739 1  35              Rx   d 8 00 00 00 00 00 00 00 00
   1.969815 2  1               Rx   d 2 00 03
   1.969887 2  1               Rx   d 2 01 03
   1.970012 2  60              Rx   d 8 3C 00 00 00 C1 CC FF FF
   1.970080 2  1               Rx   d 2 02 03
   1.970201 2  61              Rx   d 8 B6 F8 FF FF B8 F8 FF FF
   1.970271 2  1               Rx   d 2 03 03
   1.970394 2  62              Rx   d 8 7A 00 00 00 00 00 00 00
   1.970464 2  1               Rx   d 2 04 03
   1.970583 2  63              Rx   d 8 1C D1 FF FF B1 EC FF FF
   1.970652 2  1               Rx   d 2 05 03
   1.970774 2  64              Rx   d 8 F6 FF FF FF DE B5 FF FF
   1.970842 2  1               Rx   d 2 06 03
   1.970962 2  65              Rx   d 8 E1 01 00 00 E4 01 00 00
   1.971032 2  1               Rx   d 2 07 03
   1.971108 1  1               Rx   d 2 08 03
   1.971156 2  66              Rx   d 8 09 00 00 00 0A 00 00 00
   1.971181 1  1               Rx   d 2 09 03
   1.971276 2  67              Rx   d 8 46 04 00 00 8D E6 FF FF
   1.971303 1  68              Rx   d 8 F6 0A 00 00 01 05 00 00
   1.971371 1  1               Rx   d 2 0A 03
   1.971492 1  69              Rx   d 8 35 01 00 00 17 0B 00 00
   1.971562 1  1               Rx   d 2 0B 03
   1.971683 1  6A              Rx   d 8 02 05 00 00 8B 0E 00 00
   1.971751 1  1               Rx   d 2 20 03
   1.971874 1  6B              Rx   d 8 01 00 00 00 49 00 00 00
   1.971941 1  1               Rx   d 2 21 03
   1.972043 1  80              Rx   d 6 93 F5 66 FF D5 03
   1.972111 1  1               Rx   d 2 22 03
   1.972216 1  81              Rx   d 6 FF FF 00 00 00 00
   1.972283 1  1               Rx   d 2 23 03
   1.972408 1  83              Rx   d 8 5D A3 00 00 00 00 00 00
   1.972476 1  1               Rx   d 2 24 03
   1.972581 1  84              Rx   d 6 D3 E8 34 F6 7B FB
   1.972648 1  1               Rx   d 2 25 03
   2.172436 1  18              Rx   d 6 00 00 00 00 00 00
   2.172552 1  19              Rx   d 6 00 00 00 00 00 00
   2.172671 1  1A              Rx   d 6 00 00 00 00 00 00
