date Thu Feb 23 05:36:18 pm 2012
base hex  timestamps absolute
no internal events logged
// version 7.2.0
   0.007577 2  1               Rx   d 2 00 03
   0.007649 2  1               Rx   d 2 01 03
   0.007772 2  60              Rx   d 8 31 00 00 00 3B 00 00 00
   0.007840 2  1               Rx   d 2 02 03
   0.007960 2  61              Rx   d 8 AE FE FF FF 53 05 00 00
   0.008029 2  1               Rx   d 2 03 03
   0.008152 2  62              Rx   d 8 5B 00 00 00 00 00 00 00
   0.008222 2  1               Rx   d 2 04 03
   0.008346 2  63              Rx   d 8 00 00 00 00 F6 FF FF FF
   0.008416 2  1               Rx   d 2 05 03
   0.008541 2  64              Rx   d 8 61 FF FF FF 00 00 00 00
   0.008609 2  1               Rx   d 2 06 03
   0.008734 2  65              Rx   d 8 01 00 00 00 0C 00 00 00
   0.008804 2  1               Rx   d 2 07 03
   0.008879 1  1               Rx   d 2 08 03
   0.008927 2  66              Rx   d 8 00 00 00 00 1D 00 00 00
   0.009006 1  68              Rx   d 8 E4 FF FF FF E4 FF FF FF
   0.009049 2  67              Rx   d 8 17 00 00 00 D6 FF FF FF
   0.009074 1  1               Rx   d 2 09 03
   0.009146 1  1               Rx   d 2 0A 03
   0.009269 1  69              Rx   d 8 A1 FF FF FF 40 00 00 00
   0.009338 1  1               Rx   d 2 0B 03
   0.009459 1  6A              Rx   d 8 5B 00 00 00 55 1A 00 00
   0.009527 1  1               Rx   d 2 20 03
   0.009649 1  6B              Rx   d 8 52 00 00 00 01 00 00 00
   0.009716 1  1               Rx   d 2 21 03
   0.009821 1  80              Rx   d 6 00 00 00 00 02 00
   0.009889 1  1               Rx   d 2 22 03
   0.009996 1  81              Rx   d 6 FF FF 01 00 00 00
   0.010063 1  1               Rx   d 2 23 03
   0.010191 1  83              Rx   d 8 0D 00 00 00 00 00 00 00
   0.010259 1  1               Rx   d 2 24 03
   0.010332 1  1               Rx   d 2 25 03
   0.010437 1  84              Rx   d 6 00 00 00 00 01 00
   0.017574 2  1               Rx   d 2 00 03
   0.017701 2  60              Rx   d 8 31 00 00 00 3B 00 00 00
   0.017769 2  1               Rx   d 2 01 03
   0.017842 2  1               Rx   d 2 02 03
   0.017962 2  61              Rx   d 8 AE FE FF FF 53 05 00 00
   0.018032 2  1               Rx   d 2 03 03
   0.018155 2  62              Rx   d 8 5B 00 00 00 00 00 00 00
   0.018225 2  1               Rx   d 2 04 03
   0.018349 2  63              Rx   d 8 00 00 00 00 F6 FF FF FF
   0.018418 2  1               Rx   d 2 05 03
   0.018543 2  64              Rx   d 8 61 FF FF FF 00 00 00 00
   0.018611 2  1               Rx   d 2 06 03
   0.018736 2  65              Rx   d 8 01 00 00 00 0C 00 00 00
   0.018806 2  1               Rx   d 2 07 03
   0.018882 1  1               Rx   d 2 08 03
   0.018929 2  66              Rx   d 8 00 00 00 00 1D 00 00 00
   0.019008 1  68              Rx   d 8 E4 FF FF FF E4 FF FF FF
   0.019051 2  67              Rx   d 8 17 00 00 00 D6 FF FF FF
   0.019076 1  1               Rx   d 2 09 03
   0.019202 1  69              Rx   d 8 A1 FF FF FF 40 00 00 00
   0.019270 1  1               Rx   d 2 0A 03
   0.019396 1  6A              Rx   d 8 5B 00 00 00 54 1A 00 00
   0.019466 1  1               Rx   d 2 0B 03
   0.019592 1  6B              Rx   d 8 52 00 00 00 01 00 00 00
   0.019660 1  1               Rx   d 2 20 03
   0.019768 1  80              Rx   d 6 00 00 00 00 02 00
   0.019835 1  1               Rx   d 2 21 03
   0.019906 1  1               Rx   d 2 22 03
   0.020012 1  81              Rx   d 6 FF FF 01 00 00 00
   0.020079 1  1               Rx   d 2 23 03
   0.020151 1  1               Rx   d 2 24 03
   0.020276 1  83              Rx   d 8 0D 00 00 00 00 00 00 00
   0.020343 1  1               Rx   d 2 25 03
   0.020448 1  84              Rx   d 6 00 00 00 00 01 00
   0.027561 2  1               Rx   d 2 00 03
   0.027688 2  60              Rx   d 8 31 00 00 00 3B 00 00 00
   0.027757 2  1               Rx   d 2 01 03
   0.027830 2  1               Rx   d 2 02 03
   0.027950 2  61              Rx   d 8 AE FE FF FF 53 05 00 00
   0.028019 2  1               Rx   d 2 03 03
   0.028142 2  62              Rx   d 8 5B 00 00 00 00 00 00 00
   0.028212 2  1               Rx   d 2 04 03
   0.028336 2  63              Rx   d 8 00 00 00 00 F6 FF FF FF
   0.028405 2  1               Rx   d 2 05 03
   0.028530 2  64              Rx   d 8 61 FF FF FF 00 00 00 00
   0.028598 2  1               Rx   d 2 06 03
   0.028724 2  65              Rx   d 8 01 00 00 00 0C 00 00 00
   0.028794 2  1               Rx   d 2 07 03
   0.028869 1  1               Rx   d 2 08 03
   0.028917 2  66              Rx   d 8 00 00 00 00 1D 00 00 00
   0.028996 1  68              Rx   d 8 E4 FF FF FF E4 FF FF FF
   0.029039 2  67              Rx   d 8 17 00 00 00 D6 FF FF FF
   0.029064 1  1               Rx   d 2 09 03
   0.029137 1  1               Rx   d 2 0A 03
   0.029260 1  69              Rx   d 8 A1 FF FF FF 40 00 00 00
   0.029329 1  1               Rx   d 2 0B 03
   0.029451 1  6A              Rx   d 8 5B 00 00 00 54 1A 00 00
   0.029519 1  1               Rx   d 2 20 03
   0.029641 1  6B              Rx   d 8 52 00 00 00 01 00 00 00
   0.029708 1  1               Rx   d 2 21 03
   0.029813 1  80              Rx   d 6 00 00 00 00 02 00
   0.029882 1  1               Rx   d 2 22 03
   0.029988 1  81              Rx   d 6 FF FF 01 00 00 00
   0.030055 1  1               Rx   d 2 23 03
   0.030183 1  83              Rx   d 8 0D 00 00 00 00 00 00 00
   0.030251 1  1               Rx   d 2 24 03
   0.030322 1  1               Rx   d 2 25 03
   0.030427 1  84              Rx   d 6 00 00 00 00 01 00
   0.037551 2  1               Rx   d 2 00 03
   0.037678 2  60              Rx   d 8 31 00 00 00 3B 00 00 00
   0.037746 2  1               Rx   d 2 01 03
   0.037870 2  61              Rx   d 8 AE FE FF FF 53 05 00 00
   0.037938 2  1               Rx   d 2 02 03
   0.038011 2  1               Rx   d 2 03 03
   0.038135 2  62              Rx   d 8 5B 00 00 00 00 00 00 00
   0.038205 2  1               Rx   d 2 04 03
   0.038329 2  63              Rx   d 8 00 00 00 00 F6 FF FF FF
   0.038398 2  1               Rx   d 2 05 03
   0.038523 2  64              Rx   d 8 61 FF FF FF 00 00 00 00
   0.038591 2  1               Rx   d 2 06 03
   0.038716 2  65              Rx   d 8 01 00 00 00 0C 00 00 00
   0.038786 2  1               Rx   d 2 07 03
   0.038862 1  1               Rx   d 2 08 03
   0.038909 2  66              Rx   d 8 00 00 00 00 1D 00 00 00
   0.038988 1  68              Rx   d 8 E4 FF FF FF E4 FF FF FF
   0.039031 2  67              Rx   d 8 17 00 00 00 D6 FF FF FF
   0.039056 1  1               Rx   d 2 09 03
   0.039183 1  69              Rx   d 8 A1 FF FF FF 40 00 00 00
   0.039251 1  1               Rx   d 2 0A 03
   0.039324 1  1               Rx   d 2 0B 03
   0.039446 1  6A              Rx   d 8 5B 00 00 00 54 1A 00 00
   0.039514 1  1               Rx   d 2 20 03
   0.039636 1  6B              Rx   d 8 52 00 00 00 01 00 00 00
   0.039703 1  1               Rx   d 2 21 03
   0.039808 1  80              Rx   d 6 00 00 00 00 02 00
   0.039876 1  1               Rx   d 2 22 03
   0.039982 1  81              Rx   d 6 FF FF 01 00 00 00
   0.040049 1  1               Rx   d 2 23 03
   0.040121 1  1               Rx   d 2 24 03
   0.040246 1  83              Rx   d 8 0E 00 00 00 00 00 00 00
   0.040313 1  1               Rx   d 2 25 03
   0.040418 1  84              Rx   d 6 00 00 00 00 01 00
   0.047533 2  1               Rx   d 2 00 03
   0.047607 2  1               Rx   d 2 01 03
   0.047730 2  60              Rx   d 8 31 00 00 00 3B 00 00 00
   0.047798 2  1               Rx   d 2 02 03
   0.047918 2  61              Rx   d 8 AE FE FF FF 53 05 00 00
   0.047987 2  1               Rx   d 2 03 03
   0.048110 2  62              Rx   d 8 5B 00 00 00 00 00 00 00
   0.048180 2  1               Rx   d 2 04 03
   0.048304 2  63              Rx   d 8 00 00 00 00 F6 FF FF FF
   0.048373 2  1               Rx   d 2 05 03
   0.048498 2  64              Rx   d 8 61 FF FF FF 00 00 00 00
   0.048567 2  1               Rx   d 2 06 03
   0.048692 2  65              Rx   d 8 01 00 00 00 0C 00 00 00
   0.048762 2  1               Rx   d 2 07 03
   0.048837 1  1               Rx   d 2 08 03
   0.048885 2  66              Rx   d 8 00 00 00 00 1D 00 00 00
   0.048964 1  68              Rx   d 8 E4 FF FF FF E4 FF FF FF
   0.049007 2  67              Rx   d 8 17 00 00 00 D6 FF FF FF
   0.049032 1  1               Rx   d 2 09 03
   0.049158 1  69              Rx   d 8 A1 FF FF FF 40 00 00 00
   0.049226 1  1               Rx   d 2 0A 03
   0.049352 1  6A              Rx   d 8 5B 00 00 00 54 1A 00 00
   0.049421 1  1               Rx   d 2 0B 03
   0.049548 1  6B              Rx   d 8 52 00 00 00 00 00 00 00
   0.049616 1  1               Rx   d 2 20 03
   0.049725 1  80              Rx   d 6 00 00 00 00 02 00
   0.049792 1  1               Rx   d 2 21 03
   0.049864 1  1               Rx   d 2 22 03
   0.049971 1  81              Rx   d 6 FF FF 01 00 00 00
   0.050038 1  1               Rx   d 2 23 03
   0.050166 1  83              Rx   d 8 0E 00 00 00 00 00 00 00
   0.050234 1  1               Rx   d 2 24 03
   0.050307 1  1               Rx   d 2 25 03
   0.050412 1  84              Rx   d 6 00 00 00 00 01 00
   0.057524 2  1               Rx   d 2 00 03
   0.057650 2  60              Rx   d 8 31 00 00 00 3B 00 00 00
   0.057718 2  1               Rx   d 2 01 03
   0.057791 2  1               Rx   d 2 02 03
   0.057911 2  61              Rx   d 8 AE FE FF FF 53 05 00 00
   0.057981 2  1               Rx   d 2 03 03
   0.058104 2  62              Rx   d 8 5B 00 00 00 00 00 00 00
   0.058174 2  1               Rx   d 2 04 03
   0.058298 2  63              Rx   d 8 00 00 00 00 F6 FF FF FF
   0.058367 2  1               Rx   d 2 05 03
   0.058492 2  64              Rx   d 8 61 FF FF FF 00 00 00 00
   0.058560 2  1               Rx   d 2 06 03
   0.058685 2  65              Rx   d 8 01 00 00 00 0C 00 00 00
   0.058755 2  1               Rx   d 2 07 03
   0.058831 1  1               Rx   d 2 08 03
   0.058878 2  66              Rx   d 8 00 00 00 00 1D 00 00 00
   0.058957 1  68              Rx   d 8 E4 FF FF FF E4 FF FF FF
   0.059000 2  67              Rx   d 8 17 00 00 00 D6 FF FF FF
   0.059025 1  1               Rx   d 2 09 03
   0.059098 1  1               Rx   d 2 0A 03
   0.059221 1  69              Rx   d 8 A1 FF FF FF 40 00 00 00
   0.059290 1  1               Rx   d 2 0B 03
   0.059413 1  6A              Rx   d 8 5B 00 00 00 54 1A 00 00
   0.059481 1  1               Rx   d 2 20 03
   0.059604 1  6B              Rx   d 8 52 00 00 00 00 00 00 00
   0.059671 1  1               Rx   d 2 21 03
   0.059776 1  80              Rx   d 6 00 00 00 00 02 00
   0.059844 1  1               Rx   d 2 22 03
   0.059950 1  81              Rx   d 6 FF FF 01 00 00 00
   0.060017 1  1               Rx   d 2 23 03
   0.060089 1  1               Rx   d 2 24 03
   0.060213 1  83              Rx   d 8 0E 00 00 00 00 00 00 00
   0.060280 1  1               Rx   d 2 25 03
   0.060385 1  84              Rx   d 6 00 00 00 00 01 00
   0.067514 2  1               Rx   d 2 00 03
   0.067640 2  60              Rx   d 8 31 00 00 00 3B 00 00 00
   0.067708 2  1               Rx   d 2 01 03
   0.067780 2  1               Rx   d 2 02 03
   0.067900 2  61              Rx   d 8 AE FE FF FF 53 05 00 00
   0.067969 2  1               Rx   d 2 03 03
   0.068092 2  62              Rx   d 8 5B 00 00 00 00 00 00 00
   0.068162 2  1               Rx   d 2 04 03
   0.068286 2  63              Rx   d 8 00 00 00 00 F6 FF FF FF
   0.068356 2  1               Rx   d 2 05 03
   0.068481 2  64              Rx   d 8 61 FF FF FF 00 00 00 00
   0.068549 2  1               Rx   d 2 06 03
   0.068674 2  65              Rx   d 8 01 00 00 00 0C 00 00 00
   0.068744 2  1               Rx   d 2 07 03
   0.068820 1  1               Rx   d 2 08 03
   0.068867 2  66              Rx   d 8 00 00 00 00 1D 00 00 00
   0.068946 1  68              Rx   d 8 E4 FF FF FF E4 FF FF FF
   0.068989 2  67              Rx   d 8 17 00 00 00 D6 FF FF FF
   0.069015 1  1               Rx   d 2 09 03
   0.069088 1  1               Rx   d 2 0A 03
   0.069211 1  69              Rx   d 8 A1 FF FF FF 40 00 00 00
   0.069280 1  1               Rx   d 2 0B 03
   0.069402 1  6A              Rx   d 8 5B 00 00 00 54 1A 00 00
   0.069470 1  1               Rx   d 2 20 03
   0.069593 1  6B              Rx   d 8 52 00 00 00 00 00 00 00
   0.069660 1  1               Rx   d 2 21 03
   0.069765 1  80              Rx   d 6 00 00 00 00 02 00
   0.069833 1  1               Rx   d 2 22 03
   0.069939 1  81              Rx   d 6 FF FF 01 00 00 00
   0.070006 1  1               Rx   d 2 23 03
   0.070134 1  83              Rx   d 8 0E 00 00 00 00 00 00 00
   0.070203 1  1               Rx   d 2 24 03
   0.070311 1  84              Rx   d 6 00 00 00 00 01 00
   0.070378 1  1               Rx   d 2 25 03
   0.077506 2  1               Rx   d 2 00 03
   0.077578 2  1               Rx   d 2 01 03
   0.077701 2  60              Rx   d 8 31 00 00 00 3B 00 00 00
   0.077770 2  1               Rx   d 2 02 03
   0.077890 2  61              Rx   d 8 AE FE FF FF 53 05 00 00
   0.077959 2  1               Rx   d 2 03 03
   0.078082 2  62              Rx   d 8 5B 00 00 00 00 00 00 00
   0.078152 2  1               Rx   d 2 04 03
   0.078276 2  63              Rx   d 8 00 00 00 00 F6 FF FF FF
   0.078345 2  1               Rx   d 2 05 03
   0.078470 2  64              Rx   d 8 61 FF FF FF 00 00 00 00
   0.078538 2  1               Rx   d 2 06 03
   0.078663 2  65              Rx   d 8 01 00 00 00 0C 00 00 00
   0.078733 2  1               Rx   d 2 07 03
   0.078810 1  1               Rx   d 2 08 03
   0.078856 2  66              Rx   d 8 00 00 00 00 1D 00 00 00
   0.078883 1  1               Rx   d 2 09 03
   0.078979 2  67              Rx   d 8 17 00 00 00 D6 FF FF FF
   0.079006 1  68              Rx   d 8 E4 FF FF FF E4 FF FF FF
   0.079074 1  1               Rx   d 2 0A 03
   0.079197 1  69              Rx   d 8 A1 FF FF FF 40 00 00 00
   0.079266 1  1               Rx   d 2 0B 03
   0.079388 1  6A              Rx   d 8 5B 00 00 00 54 1A 00 00
   0.079457 1  1               Rx   d 2 20 03
   0.079580 1  6B              Rx   d 8 52 00 00 00 00 00 00 00
   0.079647 1  1               Rx   d 2 21 03
   0.079752 1  80              Rx   d 6 00 00 00 00 02 00
   0.079820 1  1               Rx   d 2 22 03
   0.079926 1  81              Rx   d 6 FF FF 01 00 00 00
   0.079993 1  1               Rx   d 2 23 03
   0.080066 1  1               Rx   d 2 24 03
   0.080190 1  83              Rx   d 8 0E 00 00 00 00 00 00 00
   0.080257 1  1               Rx   d 2 25 03
   0.080362 1  84              Rx   d 6 00 00 00 00 01 00
   0.087494 2  1               Rx   d 2 00 03
   0.087621 2  60              Rx   d 8 31 00 00 00 3B 00 00 00
   0.087689 2  1               Rx   d 2 01 03
   0.087761 2  1               Rx   d 2 02 03
   0.087881 2  61              Rx   d 8 AE FE FF FF 53 05 00 00
   0.087950 2  1               Rx   d 2 03 03
   0.088074 2  62              Rx   d 8 5B 00 00 00 00 00 00 00
   0.088144 2  1               Rx   d 2 04 03
   0.088268 2  63              Rx   d 8 00 00 00 00 F6 FF FF FF
   0.088337 2  1               Rx   d 2 05 03
   0.088462 2  64              Rx   d 8 61 FF FF FF 00 00 00 00
   0.088530 2  1               Rx   d 2 06 03
   0.088655 2  65              Rx   d 8 01 00 00 00 0C 00 00 00
   0.088725 2  1               Rx   d 2 07 03
   0.088802 1  1               Rx   d 2 08 03
   0.088848 2  66              Rx   d 8 00 00 00 00 1D 00 00 00
   0.088874 1  1               Rx   d 2 09 03
   0.088970 2  67              Rx   d 8 17 00 00 00 D6 FF FF FF
   0.088997 1  68              Rx   d 8 E4 FF FF FF E4 FF FF FF
   0.089065 1  1               Rx   d 2 0A 03
   0.089188 1  69              Rx   d 8 A1 FF FF FF 40 00 00 00
   0.089257 1  1               Rx   d 2 0B 03
   0.089379 1  6A              Rx   d 8 5B 00 00 00 54 1A 00 00
   0.089447 1  1               Rx   d 2 20 03
   0.089570 1  6B              Rx   d 8 52 00 00 00 00 00 00 00
   0.089637 1  1               Rx   d 2 21 03
   0.089742 1  80              Rx   d 6 00 00 00 00 02 00
   0.089810 1  1               Rx   d 2 22 03
   0.089916 1  81              Rx   d 6 FF FF 01 00 00 00
   0.089983 1  1               Rx   d 2 23 03
   0.090112 1  83              Rx   d 8 0E 00 00 00 00 00 00 00
   0.090180 1  1               Rx   d 2 24 03
   0.090288 1  84              Rx   d 6 00 00 00 00 01 00
   0.090355 1  1               Rx   d 2 25 03
   0.097484 2  1               Rx   d 2 00 03
   0.097557 2  1               Rx   d 2 01 03
   0.097681 2  60              Rx   d 8 31 00 00 00 3A 00 00 00
   0.097749 2  1               Rx   d 2 02 03
   0.097869 2  61              Rx   d 8 AE FE FF FF 53 05 00 00
   0.097938 2  1               Rx   d 2 03 03
   0.098061 2  62              Rx   d 8 5B 00 00 00 00 00 00 00
   0.098131 2  1               Rx   d 2 04 03
   0.098255 2  63              Rx   d 8 00 00 00 00 F6 FF FF FF
   0.098324 2  1               Rx   d 2 05 03
   0.098449 2  64              Rx   d 8 61 FF FF FF 00 00 00 00
   0.098517 2  1               Rx   d 2 06 03
   0.098643 2  65              Rx   d 8 01 00 00 00 0C 00 00 00
   0.098713 2  1               Rx   d 2 07 03
   0.098789 1  1               Rx   d 2 08 03
   0.098836 2  66              Rx   d 8 00 00 00 00 1D 00 00 00
   0.098916 1  68              Rx   d 8 E4 FF FF FF E4 FF FF FF
   0.098958 2  67              Rx   d 8 17 00 00 00 D6 FF FF FF
   0.098984 1  1               Rx   d 2 09 03
   0.099057 1  1               Rx   d 2 0A 03
   0.099180 1  69              Rx   d 8 A1 FF FF FF 40 00 00 00
   0.099249 1  1               Rx   d 2 0B 03
   0.099371 1  6A              Rx   d 8 5B 00 00 00 54 1A 00 00
   0.099439 1  1               Rx   d 2 20 03
   0.099562 1  6B              Rx   d 8 52 00 00 00 00 00 00 00
   0.099629 1  1               Rx   d 2 21 03
   0.099735 1  80              Rx   d 6 00 00 00 00 02 00
   0.099803 1  1               Rx   d 2 22 03
   0.099909 1  81              Rx   d 6 FF FF 01 00 00 00
   0.099976 1  1               Rx   d 2 23 03
   0.100104 1  83              Rx   d 8 0E 00 00 00 00 00 00 00
   0.100172 1  1               Rx   d 2 24 03
   0.100280 1  84              Rx   d 6 00 00 00 00 01 00
   0.100347 1  1               Rx   d 2 25 03
   0.107475 2  1               Rx   d 2 00 03
   0.107602 2  60              Rx   d 8 31 00 00 00 3A 00 00 00
   0.107670 2  1               Rx   d 2 01 03
   0.107743 2  1               Rx   d 2 02 03
   0.107864 2  61              Rx   d 8 AE FE FF FF 53 05 00 00
   0.107933 2  1               Rx   d 2 03 03
   0.108056 2  62              Rx   d 8 5B 00 00 00 00 00 00 00
   0.108126 2  1               Rx   d 2 04 03
   0.108250 2  63              Rx   d 8 00 00 00 00 F6 FF FF FF
   0.108319 2  1               Rx   d 2 05 03
   0.108444 2  64              Rx   d 8 61 FF FF FF 00 00 00 00
   0.108512 2  1               Rx   d 2 06 03
   0.108637 2  65              Rx   d 8 01 00 00 00 0C 00 00 00
   0.108707 2  1               Rx   d 2 07 03
   0.108782 1  1               Rx   d 2 08 03
   0.108830 2  66              Rx   d 8 00 00 00 00 1D 00 00 00
   0.108909 1  68              Rx   d 8 E4 FF FF FF E4 FF FF FF
   0.108952 2  67              Rx   d 8 17 00 00 00 D6 FF FF FF
   0.108977 1  1               Rx   d 2 09 03
   0.109050 1  1               Rx   d 2 0A 03
   0.109174 1  69              Rx   d 8 A1 FF FF FF 40 00 00 00
   0.109243 1  1               Rx   d 2 0B 03
   0.109365 1  6A              Rx   d 8 5B 00 00 00 54 1A 00 00
   0.109433 1  1               Rx   d 2 20 03
   0.109556 1  6B              Rx   d 8 52 00 00 00 00 00 00 00
   0.109623 1  1               Rx   d 2 21 03
   0.109728 1  80              Rx   d 6 00 00 00 00 02 00
   0.109796 1  1               Rx   d 2 22 03
   0.109902 1  81              Rx   d 6 FF FF 01 00 00 00
   0.109969 1  1               Rx   d 2 23 03
   0.110097 1  83              Rx   d 8 0E 00 00 00 00 00 00 00
   0.110165 1  1               Rx   d 2 24 03
   0.110273 1  84              Rx   d 6 00 00 00 00 01 00
   0.110341 1  1               Rx   d 2 25 03
   0.117464 2  1               Rx   d 2 00 03
   0.117538 2  1               Rx   d 2 01 03
   0.117662 2  60              Rx   d 8 31 00 00 00 3A 00 00 00
   0.117730 2  1               Rx   d 2 02 03
   0.117850 2  61              Rx   d 8 AE FE FF FF 53 05 00 00
   0.117919 2  1               Rx   d 2 03 03
   0.118042 2  62              Rx   d 8 5B 00 00 00 00 00 00 00
   0.118112 2  1               Rx   d 2 04 03
   0.118236 2  63              Rx   d 8 00 00 00 00 F6 FF FF FF
   0.118305 2  1               Rx   d 2 05 03
   0.118430 2  64              Rx   d 8 61 FF FF FF 00 00 00 00
   0.118498 2  1               Rx   d 2 06 03
   0.118624 2  65              Rx   d 8 01 00 00 00 0C 00 00 00
   0.118694 2  1               Rx   d 2 07 03
   0.118770 1  1               Rx   d 2 08 03
   0.118817 2  66              Rx   d 8 00 00 00 00 1D 00 00 00
   0.118896 1  68              Rx   d 8 E4 FF FF FF E4 FF FF FF
   0.118939 2  67              Rx   d 8 17 00 00 00 D6 FF FF FF
   0.118964 1  1               Rx   d 2 09 03
   0.119090 1  69              Rx   d 8 A1 FF FF FF 40 00 00 00
   0.119158 1  1               Rx   d 2 0A 03
   0.119231 1  1               Rx   d 2 0B 03
   0.119353 1  6A              Rx   d 8 5B 00 00 00 54 1A 00 00
   0.119421 1  1               Rx   d 2 20 03
   0.119544 1  6B              Rx   d 8 52 00 00 00 00 00 00 00
   0.119611 1  1               Rx   d 2 21 03
   0.119716 1  80              Rx   d 6 00 00 00 00 02 00
   0.119785 1  1               Rx   d 2 22 03
   0.119891 1  81              Rx   d 6 FF FF 01 00 00 00
   0.119958 1  1               Rx   d 2 23 03
   0.120030 1  1               Rx   d 2 24 03
   0.120154 1  83              Rx   d 8 0E 00 00 00 00 00 00 00
   0.120221 1  1               Rx   d 2 25 03
   0.120326 1  84              Rx   d 6 00 00 00 00 01 00
   0.127452 2  1               Rx   d 2 00 03
   0.127525 2  1               Rx   d 2 01 03
   0.127649 2  60              Rx   d 8 31 00 00 00 3A 00 00 00
   0.127717 2  1               Rx   d 2 02 03
   0.127837 2  61              Rx   d 8 AE FE FF FF 53 05 00 00
   0.127907 2  1               Rx   d 2 03 03
   0.128030 2  62              Rx   d 8 5B 00 00 00 00 00 00 00
   0.128100 2  1               Rx   d 2 04 03
   0.128224 2  63              Rx   d 8 00 00 00 00 F6 FF FF FF
   0.128293 2  1               Rx   d 2 05 03
   0.128418 2  64              Rx   d 8 61 FF FF FF 00 00 00 00
   0.128486 2  1               Rx   d 2 06 03
   0.128611 2  65              Rx   d 8 01 00 00 00 0C 00 00 00
   0.128681 2  1               Rx   d 2 07 03
   0.128757 1  1               Rx   d 2 08 03
   0.128804 2  66              Rx   d 8 00 00 00 00 1D 00 00 00
   0.128883 1  68              Rx   d 8 E4 FF FF FF E4 FF FF FF
   0.128926 2  67              Rx   d 8 17 00 00 00 D6 FF FF FF
   0.128951 1  1               Rx   d 2 09 03
   0.129077 1  69              Rx   d 8 A1 FF FF FF 40 00 00 00
   0.129146 1  1               Rx   d 2 0A 03
   0.129219 1  1               Rx   d 2 0B 03
   0.129341 1  6A              Rx   d 8 5B 00 00 00 54 1A 00 00
   0.129409 1  1               Rx   d 2 20 03
   0.129532 1  6B              Rx   d 8 52 00 00 00 00 00 00 00
   0.129599 1  1               Rx   d 2 21 03
   0.129704 1  80              Rx   d 6 00 00 00 00 02 00
   0.129772 1  1               Rx   d 2 22 03
   0.129878 1  81              Rx   d 6 FF FF 01 00 00 00
   0.129945 1  1               Rx   d 2 23 03
   0.130073 1  83              Rx   d 8 0E 00 00 00 00 00 00 00
   0.130141 1  1               Rx   d 2 24 03
   0.130213 1  1               Rx   d 2 25 03
   0.130318 1  84              Rx   d 6 00 00 00 00 01 00
   0.137445 2  1               Rx   d 2 00 03
   0.137519 2  1               Rx   d 2 01 03
   0.137643 2  60              Rx   d 8 31 00 00 00 3A 00 00 00
   0.137711 2  1               Rx   d 2 02 03
   0.137831 2  61              Rx   d 8 AE FE FF FF 53 05 00 00
   0.137900 2  1               Rx   d 2 03 03
   0.138023 2  62              Rx   d 8 5B 00 00 00 00 00 00 00
   0.138093 2  1               Rx   d 2 04 03
   0.138217 2  63              Rx   d 8 00 00 00 00 F6 FF FF FF
   0.138286 2  1               Rx   d 2 05 03
