   0.009649 1  6B              Rx   d 8 52 00 00 00 01 00 00 00
   0.019592 1  6B              Rx   d 8 52 00 00 00 01 00 00 00
   0.029641 1  6B              Rx   d 8 52 00 00 00 01 00 00 00
   0.039636 1  6B              Rx   d 8 52 00 00 00 01 00 00 00
   0.049548 1  6B              Rx   d 8 52 00 00 00 00 00 00 00
   0.059604 1  6B              Rx   d 8 52 00 00 00 00 00 00 00
   0.069593 1  6B              Rx   d 8 52 00 00 00 00 00 00 00
   0.079580 1  6B              Rx   d 8 52 00 00 00 00 00 00 00
   0.089570 1  6B              Rx   d 8 52 00 00 00 00 00 00 00
   0.099562 1  6B              Rx   d 8 52 00 00 00 00 00 00 00
   0.109556 1  6B              Rx   d 8 52 00 00 00 00 00 00 00
   0.119544 1  6B              Rx   d 8 52 00 00 00 00 00 00 00
   0.129532 1  6B              Rx   d 8 52 00 00 00 00 00 00 00
   0.139522 1  6B              Rx   d 8 52 00 00 00 00 00 00 00
   0.149448 1  6B              Rx   d 8 52 00 00 00 00 00 00 00
   0.159501 1  6B              Rx   d 8 52 00 00 00 00 00 00 00
   0.169491 1  6B              Rx   d 8 52 00 00 00 00 00 00 00
   0.179491 1  6B              Rx   d 8 52 00 00 00 00 00 00 00
   0.189476 1  6B              Rx   d 8 52 00 00 00 00 00 00 00
   0.199459 1  6B              Rx   d 8 52 00 00 00 00 00 00 00
   0.209386 1  6B              Rx   d 8 52 00 00 00 00 00 00 00
   0.219375 1  6B              Rx   d 8 52 00 00 00 00 00 00 00
   0.229435 1  6B              Rx   d 8 52 00 00 00 00 00 00 00
   0.239420 1  6B              Rx   d 8 52 00 00 00 00 00 00 00
   0.249362 1  6B              Rx   d 8 52 00 00 00 00 00 00 00
   0.259339 1  6B              Rx   d 8 52 00 00 00 00 00 00 00
   0.269326 1  6B              Rx   d 8 52 00 00 00 00 00 00 00
   0.279383 1  6B              Rx   d 8 52 00 00 00 00 00 00 00
   0.289383 1  6B              Rx   d 8 52 00 00 00 00 00 00 00
   0.299355 1  6B              Rx   d 8 52 00 00 00 00 00 00 00
   0.309353 1  6B              Rx   d 8 52 00 00 00 00 00 00 00
   0.319279 1  6B              Rx   d 8 52 00 00 00 00 00 00 00
   0.329325 1  6B              Rx   d 8 52 00 00 00 00 00 00 00
   0.339256 1  6B              Rx   d 8 52 00 00 00 00 00 00 00
   0.349307 1  6B              Rx   d 8 52 00 00 00 00 00 00 00
   0.359296 1  6B              Rx   d 8 52 00 00 00 00 00 00 00
   0.369289 1  6B              Rx   d 8 52 00 00 00 00 00 00 00
   0.379278 1  6B              Rx   d 8 52 00 00 00 00 00 00 00
   0.389266 1  6B              Rx   d 8 52 00 00 00 00 00 00 00
   0.399255 1  6B              Rx   d 8 52 00 00 00 00 00 00 00
   0.409258 1  6B              Rx   d 8 52 00 00 00 00 00 00 00
   0.419237 1  6B              Rx   d 8 52 00 00 00 00 00 00 00
   0.429240 1  6B              Rx   d 8 52 00 00 00 00 00 00 00
   0.439171 1  6B              Rx   d 8 52 00 00 00 00 00 00 00
   0.449223 1  6B              Rx   d 8 52 00 00 00 00 00 00 00
   0.459196 1  6B              Rx   d 8 52 00 00 00 00 00 00 00
   0.469188 1  6B              Rx   d 8 52 00 00 00 00 00 00 00
   0.479185 1  6B              Rx   d 8 52 00 00 00 00 00 00 00
   0.489169 1  6B              Rx   d 8 52 00 00 00 00 00 00 00
   0.499170 1  6B              Rx   d 8 52 00 00 00 00 00 00 00
   0.509159 1  6B              Rx   d 8 52 00 00 00 00 00 00 00
   0.519136 1  6B              Rx   d 8 52 00 00 00 00 00 00 00
   0.529127 1  6B              Rx   d 8 52 00 00 00 00 00 00 00
   0.539117 1  6B              Rx   d 8 52 00 00 00 00 00 00 00
   0.549109 1  6B              Rx   d 8 52 00 00 00 00 00 00 00
   0.559099 1  6B              Rx   d 8 52 00 00 00 00 00 00 00
   0.569091 1  6B              Rx   d 8 52 00 00 00 00 00 00 00
   0.579075 1  6B              Rx   d 8 52 00 00 00 00 00 00 00
   0.589068 1  6B              Rx   d 8 52 00 00 00 00 00 00 00
   0.599062 1  6B              Rx   d 8 52 00 00 00 00 00 00 00
   0.609048 1  6B              Rx   d 8 52 00 00 00 00 00 00 00
   0.619048 1  6B              Rx   d 8 52 00 00 00 00 00 00 00
   0.629033 1  6B              Rx   d 8 52 00 00 00 00 00 00 00
   0.639014 1  6B              Rx   d 8 52 00 00 00 00 00 00 00
   0.649006 1  6B              Rx   d 8 52 00 00 00 00 00 00 00
   0.658996 1  6B              Rx   d 8 52 00 00 00 00 00 00 00
   0.668920 1  6B              Rx   d 8 52 00 00 00 00 00 00 00
   0.678973 1  6B              Rx   d 8 52 00 00 00 00 00 00 00
   0.688962 1  6B              Rx   d 8 52 00 00 00 00 00 00 00
   0.698892 1  6B              Rx   d 8 52 00 00 00 00 00 00 00
   0.708951 1  6B              Rx   d 8 52 00 00 00 00 00 00 00
   0.718875 1  6B              Rx   d 8 52 00 00 00 00 00 00 00
   0.728928 1  6B              Rx   d 8 52 00 00 00 00 00 00 00
   0.738918 1  6B              Rx   d 8 52 00 00 00 00 00 00 00
   0.748901 1  6B              Rx   d 8 52 00 00 00 00 00 00 00
   0.758828 1  6B              Rx   d 8 52 00 00 00 00 00 00 00
   0.768879 1  6B              Rx   d 8 52 00 00 00 00 00 00 00
   0.778871 1  6B              Rx   d 8 52 00 00 00 00 00 00 00
   0.788800 1  6B              Rx   d 8 52 00 00 00 00 00 00 00
   0.798790 1  6B              Rx   d 8 52 00 00 00 00 00 00 00
   0.808846 1  6B              Rx   d 8 52 00 00 00 00 00 00 00
   0.818843 1  6B              Rx   d 8 52 00 00 00 00 00 00 00
   0.828764 1  6B              Rx   d 8 52 00 00 00 00 00 00 00
   0.838815 1  6B              Rx   d 8 52 00 00 00 00 00 00 00
   0.848810 1  6B              Rx   d 8 52 00 00 00 00 00 00 00
   0.858793 1  6B              Rx   d 8 52 00 00 00 00 00 00 00
   0.868792 1  6B              Rx   d 8 52 00 00 00 00 00 00 00
   0.878767 1  6B              Rx   d 8 52 00 00 00 00 00 00 00
   0.888782 1  6B              Rx   d 8 52 00 00 00 00 00 00 00
   0.898754 1  6B              Rx   d 8 52 00 00 00 00 00 00 00
   0.908684 1  6B              Rx   d 8 52 00 00 00 00 00 00 00
   0.918732 1  6B              Rx   d 8 52 00 00 00 00 00 00 00
   0.928739 1  6B              Rx   d 8 52 00 00 00 00 00 00 00
   0.938712 1  6B              Rx   d 8 52 00 00 00 00 00 00 00
   0.948644 1  6B              Rx   d 8 52 00 00 00 00 00 00 00
   0.958694 1  6B              Rx   d 8 52 00 00 00 00 00 00 00
   0.968625 1  6B              Rx   d 8 52 00 00 00 00 00 00 00
   0.978688 1  6B              Rx   d 8 52 00 00 00 00 00 00 00
   0.988658 1  6B              Rx   d 8 52 00 00 00 00 00 00 00
   0.998652 1  6B              Rx   d 8 52 00 00 00 00 00 00 00
   1.008580 1  6B              Rx   d 8 52 00 00 00 00 00 00 00
   1.018634 1  6B              Rx   d 8 52 00 00 00 00 00 00 00
   1.028624 1  6B              Rx   d 8 52 00 00 00 00 00 00 00
   1.038614 1  6B              Rx   d 8 52 00 00 00 00 00 00 00
   1.048612 1  6B              Rx   d 8 52 00 00 00 00 00 00 00
   1.058591 1  6B              Rx   d 8 52 00 00 00 00 00 00 00
   1.068597 1  6B              Rx   d 8 52 00 00 00 00 00 00 00
   1.078568 1  6B              Rx   d 8 52 00 00 00 00 00 00 00
   1.088711 1  6B              Rx   d 8 52 00 00 00 00 00 00 00
   1.098551 1  6B              Rx   d 8 52 00 00 00 00 00 00 00
   1.108479 1  6B              Rx   d 8 52 00 00 00 00 00 00 00
   1.118473 1  6B              Rx   d 8 52 00 00 00 00 00 00 00
   1.128519 1  6B              Rx   d 8 52 00 00 00 00 00 00 00
   1.138522 1  6B              Rx   d 8 52 00 00 00 00 00 00 00
   1.148514 1  6B              Rx   d 8 52 00 00 00 00 00 00 00
   1.158491 1  6B              Rx   d 8 52 00 00 00 00 00 00 00
   1.168480 1  6B              Rx   d 8 52 00 00 00 00 00 00 00
   1.178472 1  6B              Rx   d 8 52 00 00 00 00 00 00 00
   1.188460 1  6B              Rx   d 8 52 00 00 00 00 00 00 00
   1.198448 1  6B              Rx   d 8 52 00 00 00 00 00 00 00
   1.208436 1  6B              Rx   d 8 52 00 00 00 00 00 00 00
   1.218437 1  6B              Rx   d 8 52 00 00 00 00 00 00 00
   1.228420 1  6B              Rx   d 8 52 00 00 00 00 00 00 00
   1.238411 1  6B              Rx   d 8 52 00 00 00 00 00 00 00
   1.248413 1  6B              Rx   d 8 52 00 00 00 00 00 00 00
   1.258332 1  6B              Rx   d 8 52 00 00 00 00 00 00 00
   1.268378 1  6B              Rx   d 8 52 00 00 00 00 00 00 00
   1.278369 1  6B              Rx   d 8 52 00 00 00 00 00 00 00
   1.288365 1  6B              Rx   d 8 52 00 00 00 00 00 00 00
   1.298349 1  6B              Rx   d 8 52 00 00 00 01 00 00 00
   1.308337 1  6B              Rx   d 8 52 00 00 00 01 00 00 00
   1.318271 1  6B              Rx   d 8 52 00 00 00 01 00 00 00
   1.328258 1  6B              Rx   d 8 52 00 00 00 01 00 00 00
   1.338314 1  6B              Rx   d 8 52 00 00 00 01 00 00 00
   1.348301 1  6B              Rx   d 8 52 00 00 00 01 00 00 00
   1.358294 1  6B              Rx   d 8 52 00 00 00 01 00 00 00
   1.368220 1  6B              Rx   d 8 52 00 00 00 01 00 00 00
   1.378207 1  6B              Rx   d 8 52 00 00 00 01 00 00 00
   1.388263 1  6B              Rx   d 8 52 00 00 00 01 00 00 00
   1.398188 1  6B              Rx   d 8 52 00 00 00 01 00 00 00
   1.408249 1  6B              Rx   d 8 52 00 00 00 01 00 00 00
   1.418243 1  6B              Rx   d 8 52 00 00 00 01 00 00 00
   1.428218 1  6B              Rx   d 8 52 00 00 00 01 00 00 00
   1.438206 1  6B              Rx   d 8 52 00 00 00 01 00 00 00
   1.448208 1  6B              Rx   d 8 52 00 00 00 01 00 00 00
   1.458189 1  6B              Rx   d 8 52 00 00 00 01 00 00 00
   1.468117 1  6B              Rx   d 8 52 00 00 00 01 00 00 00
   1.478170 1  6B              Rx   d 8 52 00 00 00 01 00 00 00
   1.488159 1  6B              Rx   d 8 52 00 00 00 01 00 00 00
   1.498167 1  6B              Rx   d 8 52 00 00 00 01 00 00 00
   1.508139 1  6B              Rx   d 8 52 00 00 00 01 00 00 00
   1.518142 1  6B              Rx   d 8 52 00 00 00 01 00 00 00
   1.528118 1  6B              Rx   d 8 52 00 00 00 01 00 00 00
   1.538123 1  6B              Rx   d 8 52 00 00 00 01 00 00 00
   1.548103 1  6B              Rx   d 8 52 00 00 00 01 00 00 00
   1.558035 1  6B              Rx   d 8 52 00 00 00 01 00 00 00
   1.568075 1  6B              Rx   d 8 52 00 00 00 01 00 00 00
   1.578020 1  6B              Rx   d 8 52 00 00 00 01 00 00 00
   1.587995 1  6B              Rx   d 8 52 00 00 00 01 00 00 00
   1.598045 1  6B              Rx   d 8 52 00 00 00 01 00 00 00
   1.608043 1  6B              Rx   d 8 52 00 00 00 01 00 00 00
   1.617965 1  6B              Rx   d 8 52 00 00 00 01 00 00 00
   1.627956 1  6B              Rx   d 8 52 00 00 00 01 00 00 00
   1.638006 1  6B              Rx   d 8 52 00 00 00 01 00 00 00
   1.647999 1  6B              Rx   d 8 52 00 00 00 01 00 00 00
   1.657986 1  6B              Rx   d 8 52 00 00 00 01 00 00 00
   1.667987 1  6B              Rx   d 8 52 00 00 00 01 00 00 00
   1.677909 1  6B              Rx   d 8 52 00 00 00 01 00 00 00
   1.687955 1  6B              Rx   d 8 52 00 00 00 01 00 00 00
   1.697949 1  6B              Rx   d 8 52 00 00 00 01 00 00 00
   1.707939 1  6B              Rx   d 8 52 00 00 00 01 00 00 00
   1.717866 1  6B              Rx   d 8 52 00 00 00 01 00 00 00
   1.727921 1  6B              Rx   d 8 52 00 00 00 01 00 00 00
   1.737857 1  6B              Rx   d 8 52 00 00 00 01 00 00 00
   1.747905 1  6B              Rx   d 8 52 00 00 00 01 00 00 00
   1.757892 1  6B              Rx   d 8 52 00 00 00 01 00 00 00
   1.767882 1  6B              Rx   d 8 52 00 00 00 01 00 00 00
   1.777872 1  6B              Rx   d 8 52 00 00 00 01 00 00 00
   1.787855 1  6B              Rx   d 8 52 00 00 00 01 00 00 00
   1.797854 1  6B              Rx   d 8 51 00 00 00 01 00 00 00
   1.807837 1  6B              Rx   d 8 51 00 00 00 02 00 00 00
   1.817771 1  6B              Rx   d 8 51 00 00 00 02 00 00 00
   1.827817 1  6B              Rx   d 8 51 00 00 00 02 00 00 00
   1.837822 1  6B              Rx   d 8 51 00 00 00 02 00 00 00
   1.847741 1  6B              Rx   d 8 51 00 00 00 02 00 00 00
   1.857786 1  6B              Rx   d 8 51 00 00 00 02 00 00 00
   1.867781 1  6B              Rx   d 8 51 00 00 00 03 00 00 00
   1.877775 1  6B              Rx   d 8 51 00 00 00 03 00 00 00
   1.887757 1  6B              Rx   d 8 51 00 00 00 03 00 00 00
   1.897756 1  6B              Rx   d 8 51 00 00 00 03 00 00 00
   1.907740 1  6B              Rx   d 8 51 00 00 00 05 00 00 00
   1.917667 1  6B              Rx   d 8 51 00 00 00 08 00 00 00
   1.927742 1  6B              Rx   d 8 51 00 00 00 0B 00 00 00
   1.937705 1  6B              Rx   d 8 51 00 00 00 0E 00 00 00
   1.947697 1  6B              Rx   d 8 51 00 00 00 10 00 00 00
   1.957684 1  6B              Rx   d 8 51 00 00 00 11 00 00 00
   1.967681 1  6B              Rx   d 8 51 00 00 00 12 00 00 00
   1.977667 1  6B              Rx   d 8 51 00 00 00 13 00 00 00
   1.987652 1  6B              Rx   d 8 51 00 00 00 15 00 00 00
   1.997657 1  6B              Rx   d 8 51 00 00 00 16 00 00 00
   2.007647 1  6B              Rx   d 8 51 00 00 00 19 00 00 00
   2.017630 1  6B              Rx   d 8 51 00 00 00 1B 00 00 00
   2.027620 1  6B              Rx   d 8 51 00 00 00 1B 00 00 00
   2.037551 1  6B              Rx   d 8 51 00 00 00 1C 00 00 00
   2.047610 1  6B              Rx   d 8 51 00 00 00 1E 00 00 00
   2.057591 1  6B              Rx   d 8 51 00 00 00 1E 00 00 00
   2.067581 1  6B              Rx   d 8 51 00 00 00 1F 00 00 00
   2.077571 1  6B              Rx   d 8 51 00 00 00 21 00 00 00
   2.087559 1  6B              Rx   d 8 51 00 00 00 22 00 00 00
   2.097687 1  6B              Rx   d 8 51 00 00 00 24 00 00 00
   2.107538 1  6B              Rx   d 8 51 00 00 00 25 00 00 00
   2.117533 1  6B              Rx   d 8 51 00 00 00 28 00 00 00
   2.127519 1  6B              Rx   d 8 51 00 00 00 2A 00 00 00
   2.137508 1  6B              Rx   d 8 51 00 00 00 2C 00 00 00
   2.147498 1  6B              Rx   d 8 51 00 00 00 2D 00 00 00
   2.157489 1  6B              Rx   d 8 51 00 00 00 2E 00 00 00
   2.167486 1  6B              Rx   d 8 51 00 00 00 31 00 00 00
   2.177472 1  6B              Rx   d 8 51 00 00 00 34 00 00 00
   2.187465 1  6B              Rx   d 8 51 00 00 00 37 00 00 00
   2.197448 1  6B              Rx   d 8 51 00 00 00 3A 00 00 00
   2.207382 1  6B              Rx   d 8 51 00 00 00 3C 00 00 00
   2.217370 1  6B              Rx   d 8 51 00 00 00 3C 00 00 00
   2.227426 1  6B              Rx   d 8 51 00 00 00 3E 00 00 00
   2.237415 1  6B              Rx   d 8 51 00 00 00 41 00 00 00
   2.247338 1  6B              Rx   d 8 51 00 00 00 46 00 00 00
   2.257387 1  6B              Rx   d 8 51 00 00 00 4A 00 00 00
   2.267375 1  6B              Rx   d 8 51 00 00 00 4C 00 00 00
   2.277363 1  6B              Rx   d 8 51 00 00 00 4E 00 00 00
   2.287362 1  6B              Rx   d 8 51 00 00 00 50 00 00 00
   2.297342 1  6B              Rx   d 8 51 00 00 00 51 00 00 00
   2.307332 1  6B              Rx   d 8 51 00 00 00 52 00 00 00
   2.317324 1  6B              Rx   d 8 51 00 00 00 55 00 00 00
   2.327311 1  6B              Rx   d 8 51 00 00 00 58 00 00 00
   2.337297 1  6B              Rx   d 8 51 00 00 00 5C 00 00 00
   2.347232 1  6B              Rx   d 8 51 00 00 00 5F 00 00 00
   2.357224 1  6B              Rx   d 8 51 00 00 00 61 00 00 00
   2.367219 1  6B              Rx   d 8 51 00 00 00 63 00 00 00
   2.377275 1  6B              Rx   d 8 51 00 00 00 66 00 00 00
   2.387263 1  6B              Rx   d 8 51 00 00 00 69 00 00 00
   2.397248 1  6B              Rx   d 8 51 00 00 00 6E 00 00 00
   2.407172 1  6B              Rx   d 8 51 00 00 00 72 00 00 00
   2.417223 1  6B              Rx   d 8 51 00 00 00 75 00 00 00
   2.427220 1  6B              Rx   d 8 51 00 00 00 77 00 00 00
   2.437210 1  6B              Rx   d 8 51 00 00 00 78 00 00 00
   2.447141 1  6B              Rx   d 8 51 00 00 00 79 00 00 00
   2.457194 1  6B              Rx   d 8 51 00 00 00 7B 00 00 00
   2.467178 1  6B              Rx   d 8 51 00 00 00 7C 00 00 00
   2.477166 1  6B              Rx   d 8 51 00 00 00 7E 00 00 00
   2.487152 1  6B              Rx   d 8 51 00 00 00 81 00 00 00
   2.497138 1  6B              Rx   d 8 51 00 00 00 85 00 00 00
   2.507130 1  6B              Rx   d 8 51 00 00 00 8A 00 00 00
   2.517128 1  6B              Rx   d 8 51 00 00 00 8F 00 00 00
   2.527107 1  6B              Rx   d 8 51 00 00 00 93 00 00 00
   2.537053 1  6B              Rx   d 8 51 00 00 00 96 00 00 00
   2.547100 1  6B              Rx   d 8 51 00 00 00 99 00 00 00
   2.557080 1  6B              Rx   d 8 51 00 00 00 9A 00 00 00
   2.567069 1  6B              Rx   d 8 51 00 00 00 9B 00 00 00
   2.577056 1  6B              Rx   d 8 51 00 00 00 9E 00 00 00
   2.587052 1  6B              Rx   d 8 51 00 00 00 A3 00 00 00
   2.597041 1  6B              Rx   d 8 51 00 00 00 AB 00 00 00
   2.607038 1  6B              Rx   d 8 51 00 00 00 B1 00 00 00
   2.617019 1  6B              Rx   d 8 51 00 00 00 B4 00 00 00
   2.627013 1  6B              Rx   d 8 51 00 00 00 B7 00 00 00
   2.636996 1  6B              Rx   d 8 51 00 00 00 BA 00 00 00
   2.646993 1  6B              Rx   d 8 51 00 00 00 BD 00 00 00
   2.656983 1  6B              Rx   d 8 51 00 00 00 BF 00 00 00
   2.666975 1  6B              Rx   d 8 51 00 00 00 C1 00 00 00
   2.676958 1  6B              Rx   d 8 51 00 00 00 C3 00 00 00
   2.686885 1  6B              Rx   d 8 51 00 00 00 C6 00 00 00
   2.696936 1  6B              Rx   d 8 51 00 00 00 CB 00 00 00
   2.706935 1  6B              Rx   d 8 51 00 00 00 D3 00 00 00
   2.716917 1  6B              Rx   d 8 51 00 00 00 DB 00 00 00
   2.726867 1  6B              Rx   d 8 51 00 00 00 E0 00 00 00
   2.736896 1  6B              Rx   d 8 51 00 00 00 E3 00 00 00
   2.746892 1  6B              Rx   d 8 51 00 00 00 E7 00 00 00
   2.756902 1  6B              Rx   d 8 51 00 00 00 EE 00 00 00
   2.766865 1  6B              Rx   d 8 51 00 00 00 F3 00 00 00
   2.776874 1  6B              Rx   d 8 51 00 00 00 FA 00 00 00
   2.786858 1  6B              Rx   d 8 51 00 00 00 FF 00 00 00
   2.796846 1  6B              Rx   d 8 51 00 00 00 02 01 00 00
   2.806833 1  6B              Rx   d 8 51 00 00 00 06 01 00 00
   2.816816 1  6B              Rx   d 8 51 00 00 00 0B 01 00 00
   2.826806 1  6B              Rx   d 8 51 00 00 00 0F 01 00 00
   2.836794 1  6B              Rx   d 8 51 00 00 00 12 01 00 00
   2.846792 1  6B              Rx   d 8 51 00 00 00 13 01 00 00
   2.856772 1  6B              Rx   d 8 51 00 00 00 13 01 00 00
   2.866775 1  6B              Rx   d 8 51 00 00 00 14 01 00 00
   2.876760 1  6B              Rx   d 8 51 00 00 00 17 01 00 00
   2.886758 1  6B              Rx   d 8 51 00 00 00 1B 01 00 00
   2.896675 1  6B              Rx   d 8 51 00 00 00 20 01 00 00
   2.906729 1  6B              Rx   d 8 51 00 00 00 22 01 00 00
   2.916719 1  6B              Rx   d 8 51 00 00 00 23 01 00 00
   2.926729 1  6B              Rx   d 8 51 00 00 00 24 01 00 00
   2.936701 1  6B              Rx   d 8 51 00 00 00 24 01 00 00
   2.946687 1  6B              Rx   d 8 51 00 00 00 24 01 00 00
   2.956681 1  6B              Rx   d 8 51 00 00 00 24 01 00 00
   2.966668 1  6B              Rx   d 8 51 00 00 00 25 01 00 00
   2.976660 1  6B              Rx   d 8 51 00 00 00 27 01 00 00
   2.986642 1  6B              Rx   d 8 51 00 00 00 2B 01 00 00
   2.996640 1  6B              Rx   d 8 51 00 00 00 2D 01 00 00
   3.006629 1  6B              Rx   d 8 51 00 00 00 2F 01 00 00
   3.016624 1  6B              Rx   d 8 51 00 00 00 2F 01 00 00
   3.026623 1  6B              Rx   d 8 51 00 00 00 2F 01 00 00
   3.036608 1  6B              Rx   d 8 51 00 00 00 2F 01 00 00
   3.046592 1  6B              Rx   d 8 51 00 00 00 30 01 00 00
   3.056575 1  6B              Rx   d 8 51 00 00 00 33 01 00 00
   3.066575 1  6B              Rx   d 8 51 00 00 00 36 01 00 00
   3.076571 1  6B              Rx   d 8 50 00 00 00 38 01 00 00
   3.086549 1  6B              Rx   d 8 50 00 00 00 38 01 00 00
   3.096543 1  6B              Rx   d 8 50 00 00 00 39 01 00 00
   3.106532 1  6B              Rx   d 8 50 00 00 00 3A 01 00 00
   3.116524 1  6B              Rx   d 8 51 00 00 00 3A 01 00 00
   3.126512 1  6B              Rx   d 8 51 00 00 00 3A 01 00 00
   3.136494 1  6B              Rx   d 8 51 00 00 00 3A 01 00 00
   3.146500 1  6B              Rx   d 8 51 00 00 00 3A 01 00 00
   3.156485 1  6B              Rx   d 8 51 00 00 00 3B 01 00 00
   3.166472 1  6B              Rx   d 8 51 00 00 00 3D 01 00 00
   3.176455 1  6B              Rx   d 8 51 00 00 00 43 01 00 00
   3.186448 1  6B              Rx   d 8 51 00 00 00 48 01 00 00
   3.196432 1  6B              Rx   d 8 51 00 00 00 4A 01 00 00
   3.206424 1  6B              Rx   d 8 51 00 00 00 4A 01 00 00
   3.216424 1  6B              Rx   d 8 51 00 00 00 4A 01 00 00
   3.226419 1  6B              Rx   d 8 51 00 00 00 4A 01 00 00
   3.236401 1  6B              Rx   d 8 51 00 00 00 4A 01 00 00
   3.246416 1  6B              Rx   d 8 51 00 00 00 4A 01 00 00
   3.256382 1  6B              Rx   d 8 51 00 00 00 49 01 00 00
   3.266372 1  6B              Rx   d 8 51 00 00 00 49 01 00 00
   3.276358 1  6B              Rx   d 8 51 00 00 00 49 01 00 00
   3.286356 1  6B              Rx   d 8 51 00 00 00 49 01 00 00
   3.296347 1  6B              Rx   d 8 51 00 00 00 49 01 00 00
   3.306339 1  6B              Rx   d 8 51 00 00 00 49 01 00 00
   3.316324 1  6B              Rx   d 8 51 00 00 00 49 01 00 00
   3.326311 1  6B              Rx   d 8 51 00 00 00 49 01 00 00
   3.336298 1  6B              Rx   d 8 51 00 00 00 49 01 00 00
   3.346305 1  6B              Rx   d 8 51 00 00 00 49 01 00 00
   3.356283 1  6B              Rx   d 8 51 00 00 00 49 01 00 00
   3.366202 1  6B              Rx   d 8 51 00 00 00 49 01 00 00
   3.376256 1  6B              Rx   d 8 51 00 00 00 49 01 00 00
   3.386244 1  6B              Rx   d 8 51 00 00 00 49 01 00 00
   3.396230 1  6B              Rx   d 8 51 00 00 00 49 01 00 00
   3.406164 1  6B              Rx   d 8 51 00 00 00 49 01 00 00
   3.416219 1  6B              Rx   d 8 51 00 00 00 49 01 00 00
   3.426198 1  6B              Rx   d 8 51 00 00 00 49 01 00 00
   3.436188 1  6B              Rx   d 8 51 00 00 00 49 01 00 00
   3.446183 1  6B              Rx   d 8 51 00 00 00 49 01 00 00
   3.456178 1  6B              Rx   d 8 51 00 00 00 49 01 00 00
   3.466166 1  6B              Rx   d 8 51 00 00 00 49 01 00 00
   3.476103 1  6B              Rx   d 8 51 00 00 00 49 01 00 00
   3.486088 1  6B              Rx   d 8 51 00 00 00 49 01 00 00
   3.496080 1  6B              Rx   d 8 51 00 00 00 49 01 00 00
   3.506128 1  6B              Rx   d 8 51 00 00 00 49 01 00 00
   3.516124 1  6B              Rx   d 8 51 00 00 00 49 01 00 00
   3.526108 1  6B              Rx   d 8 51 00 00 00 49 01 00 00
   3.536236 1  6B              Rx   d 8 51 00 00 00 49 01 00 00
   3.546034 1  6B              Rx   d 8 51 00 00 00 49 01 00 00
   3.556075 1  6B              Rx   d 8 51 00 00 00 49 01 00 00
   3.565999 1  6B              Rx   d 8 51 00 00 00 49 01 00 00
   3.576057 1  6B              Rx   d 8 51 00 00 00 49 01 00 00
   3.586044 1  6B              Rx   d 8 51 00 00 00 49 01 00 00
   3.596028 1  6B              Rx   d 8 51 00 00 00 49 01 00 00
   3.606029 1  6B              Rx   d 8 51 00 00 00 49 01 00 00
   3.616021 1  6B              Rx   d 8 51 00 00 00 49 01 00 00
   3.626146 1  6B              Rx   d 8 51 00 00 00 49 01 00 00
   3.635995 1  6B              Rx   d 8 51 00 00 00 49 01 00 00
   3.645989 1  6B              Rx   d 8 51 00 00 00 49 01 00 00
   3.655976 1  6B              Rx   d 8 51 00 00 00 49 01 00 00
   3.665958 1  6B              Rx   d 8 51 00 00 00 49 01 00 00
   3.675954 1  6B              Rx   d 8 51 00 00 00 49 01 00 00
   3.685945 1  6B              Rx   d 8 51 00 00 00 49 01 00 00
   3.695948 1  6B              Rx   d 8 51 00 00 00 49 01 00 00
   3.705929 1  6B              Rx   d 8 51 00 00 00 49 01 00 00
   3.715918 1  6B              Rx   d 8 51 00 00 00 49 01 00 00
   3.725897 1  6B              Rx   d 8 51 00 00 00 49 01 00 00
   3.735890 1  6B              Rx   d 8 51 00 00 00 49 01 00 00
   3.745887 1  6B              Rx   d 8 51 00 00 00 49 01 00 00
   3.755865 1  6B              Rx   d 8 51 00 00 00 49 01 00 00
   3.765864 1  6B              Rx   d 8 51 00 00 00 49 01 00 00
   3.775795 1  6B              Rx   d 8 52 00 00 00 49 01 00 00
   3.785847 1  6B              Rx   d 8 52 00 00 00 49 01 00 00
   3.795839 1  6B              Rx   d 8 52 00 00 00 49 01 00 00
   3.805822 1  6B              Rx   d 8 52 00 00 00 49 01 00 00
   3.815818 1  6B              Rx   d 8 51 00 00 00 49 01 00 00
   3.825805 1  6B              Rx   d 8 52 00 00 00 49 01 00 00
   3.835794 1  6B              Rx   d 8 51 00 00 00 49 01 00 00
   3.845787 1  6B              Rx   d 8 51 00 00 00 49 01 00 00
   3.855768 1  6B              Rx   d 8 51 00 00 00 49 01 00 00
   3.865772 1  6B              Rx   d 8 52 00 00 00 49 01 00 00
   3.875746 1  6B              Rx   d 8 51 00 00 00 49 01 00 00
   3.885752 1  6B              Rx   d 8 51 00 00 00 49 01 00 00
   3.895743 1  6B              Rx   d 8 51 00 00 00 49 01 00 00
   3.905723 1  6B              Rx   d 8 51 00 00 00 49 01 00 00
   3.915709 1  6B              Rx   d 8 51 00 00 00 49 01 00 00
   3.925724 1  6B              Rx   d 8 51 00 00 00 49 01 00 00
   3.935697 1  6B              Rx   d 8 51 00 00 00 49 01 00 00
   3.945687 1  6B              Rx   d 8 51 00 00 00 49 01 00 00
   3.955680 1  6B              Rx   d 8 51 00 00 00 49 01 00 00
   3.965661 1  6B              Rx   d 8 51 00 00 00 49 01 00 00
   3.975658 1  6B              Rx   d 8 51 00 00 00 49 01 00 00
   3.985583 1  6B              Rx   d 8 51 00 00 00 49 01 00 00
   3.995634 1  6B              Rx   d 8 51 00 00 00 49 01 00 00
   4.005632 1  6B              Rx   d 8 51 00 00 00 49 01 00 00
   4.015623 1  6B              Rx   d 8 51 00 00 00 49 01 00 00
   4.025615 1  6B              Rx   d 8 51 00 00 00 49 01 00 00
   4.035617 1  6B              Rx   d 8 51 00 00 00 49 01 00 00
   4.045592 1  6B              Rx   d 8 51 00 00 00 49 01 00 00
   4.055531 1  6B              Rx   d 8 52 00 00 00 49 01 00 00
   4.065564 1  6B              Rx   d 8 52 00 00 00 4A 01 00 00
   4.075553 1  6B              Rx   d 8 52 00 00 00 4A 01 00 00
   4.085482 1  6B              Rx   d 8 52 00 00 00 4A 01 00 00
   4.095545 1  6B              Rx   d 8 52 00 00 00 4A 01 00 00
   4.105516 1  6B              Rx   d 8 52 00 00 00 4A 01 00 00
   4.115455 1  6B              Rx   d 8 52 00 00 00 4A 01 00 00
   4.125522 1  6B              Rx   d 8 52 00 00 00 4A 01 00 00
   4.135496 1  6B              Rx   d 8 52 00 00 00 4A 01 00 00
   4.145485 1  6B              Rx   d 8 52 00 00 00 49 01 00 00
   4.155470 1  6B              Rx   d 8 52 00 00 00 49 01 00 00
   4.165473 1  6B              Rx   d 8 52 00 00 00 49 01 00 00
   4.175460 1  6B              Rx   d 8 52 00 00 00 49 01 00 00
   4.185457 1  6B              Rx   d 8 52 00 00 00 49 01 00 00
   4.195368 1  6B              Rx   d 8 52 00 00 00 49 01 00 00
   4.205430 1  6B              Rx   d 8 52 00 00 00 49 01 00 00
   4.215415 1  6B              Rx   d 8 52 00 00 00 49 01 00 00
   4.225398 1  6B              Rx   d 8 52 00 00 00 49 01 00 00
   4.235382 1  6B              Rx   d 8 52 00 00 00 49 01 00 00
   4.245407 1  6B              Rx   d 8 52 00 00 00 49 01 00 00
   4.255376 1  6B              Rx   d 8 52 00 00 00 49 01 00 00
   4.265362 1  6B              Rx   d 8 52 00 00 00 49 01 00 00
   4.275354 1  6B              Rx   d 8 52 00 00 00 49 01 00 00
   4.285337 1  6B              Rx   d 8 52 00 00 00 49 01 00 00
   4.295340 1  6B              Rx   d 8 52 00 00 00 49 01 00 00
   4.305322 1  6B              Rx   d 8 52 00 00 00 49 01 00 00
   4.315309 1  6B              Rx   d 8 52 00 00 00 49 01 00 00
   4.325308 1  6B              Rx   d 8 52 00 00 00 49 01 00 00
   4.335227 1  6B              Rx   d 8 52 00 00 00 49 01 00 00
   4.345280 1  6B              Rx   d 8 52 00 00 00 48 01 00 00
   4.355280 1  6B              Rx   d 8 52 00 00 00 48 01 00 00
   4.365263 1  6B              Rx   d 8 52 00 00 00 48 01 00 00
   4.375261 1  6B              Rx   d 8 52 00 00 00 48 01 00 00
   4.385234 1  6B              Rx   d 8 52 00 00 00 48 01 00 00
   4.395229 1  6B              Rx   d 8 52 00 00 00 48 01 00 00
   4.405160 1  6B              Rx   d 8 52 00 00 00 48 01 00 00
   4.415149 1  6B              Rx   d 8 52 00 00 00 48 01 00 00
   4.425218 1  6B              Rx   d 8 52 00 00 00 48 01 00 00
   4.435203 1  6B              Rx   d 8 52 00 00 00 48 01 00 00
   4.445184 1  6B              Rx   d 8 52 00 00 00 48 01 00 00
   4.455181 1  6B              Rx   d 8 52 00 00 00 48 01 00 00
   4.465157 1  6B              Rx   d 8 52 00 00 00 48 01 00 00
   4.475151 1  6B              Rx   d 8 52 00 00 00 48 01 00 00
   4.485143 1  6B              Rx   d 8 52 00 00 00 48 01 00 00
   4.495127 1  6B              Rx   d 8 52 00 00 00 48 01 00 00
   4.505116 1  6B              Rx   d 8 52 00 00 00 48 01 00 00
   4.515052 1  6B              Rx   d 8 52 00 00 00 48 01 00 00
   4.525099 1  6B              Rx   d 8 52 00 00 00 48 01 00 00
   4.535084 1  6B              Rx   d 8 52 00 00 00 48 01 00 00
   4.545077 1  6B              Rx   d 8 52 00 00 00 48 01 00 00
   4.555067 1  6B              Rx   d 8 52 00 00 00 48 01 00 00
   4.565056 1  6B              Rx   d 8 52 00 00 00 48 01 00 00
   4.575051 1  6B              Rx   d 8 52 00 00 00 48 01 00 00
   4.585043 1  6B              Rx   d 8 52 00 00 00 48 01 00 00
   4.595034 1  6B              Rx   d 8 52 00 00 00 48 01 00 00
   4.605013 1  6B              Rx   d 8 52 00 00 00 48 01 00 00
   4.614946 1  6B              Rx   d 8 52 00 00 00 48 01 00 00
   4.624996 1  6B              Rx   d 8 52 00 00 00 48 01 00 00
   4.634991 1  6B              Rx   d 8 52 00 00 00 48 01 00 00
   4.644986 1  6B              Rx   d 8 52 00 00 00 48 01 00 00
   4.654966 1  6B              Rx   d 8 52 00 00 00 48 01 00 00
   4.664962 1  6B              Rx   d 8 52 00 00 00 48 01 00 00
   4.674950 1  6B              Rx   d 8 52 00 00 00 48 01 00 00
   4.684936 1  6B              Rx   d 8 52 00 00 00 48 01 00 00
   4.694934 1  6B              Rx   d 8 52 00 00 00 48 01 00 00
   4.704935 1  6B              Rx   d 8 52 00 00 00 48 01 00 00
   4.714905 1  6B              Rx   d 8 52 00 00 00 48 01 00 00
   4.724911 1  6B              Rx   d 8 52 00 00 00 48 01 00 00
   4.734827 1  6B              Rx   d 8 52 00 00 00 48 01 00 00
   4.744886 1  6B              Rx   d 8 52 00 00 00 48 01 00 00
   4.754806 1  6B              Rx   d 8 52 00 00 00 48 01 00 00
   4.764862 1  6B              Rx   d 8 52 00 00 00 48 01 00 00
   4.774855 1  6B              Rx   d 8 52 00 00 00 48 01 00 00
   4.784840 1  6B              Rx   d 8 52 00 00 00 48 01 00 00
   4.794828 1  6B              Rx   d 8 52 00 00 00 48 01 00 00
   4.804812 1  6B              Rx   d 8 52 00 00 00 48 01 00 00
   4.814810 1  6B              Rx   d 8 52 00 00 00 48 01 00 00
   4.824797 1  6B              Rx   d 8 52 00 00 00 48 01 00 00
   4.834782 1  6B              Rx   d 8 53 00 00 00 48 01 00 00
   4.844783 1  6B              Rx   d 8 53 00 00 00 48 01 00 00
   4.854774 1  6B              Rx   d 8 53 00 00 00 49 01 00 00
   4.864755 1  6B              Rx   d 8 53 00 00 00 49 01 00 00
   4.874742 1  6B              Rx   d 8 53 00 00 00 49 01 00 00
   4.884670 1  6B              Rx   d 8 53 00 00 00 49 01 00 00
   4.894734 1  6B              Rx   d 8 53 00 00 00 49 01 00 00
   4.904721 1  6B              Rx   d 8 53 00 00 00 49 01 00 00
   4.914711 1  6B              Rx   d 8 53 00 00 00 49 01 00 00
   4.924642 1  6B              Rx   d 8 53 00 00 00 49 01 00 00
   4.934705 1  6B              Rx   d 8 53 00 00 00 49 01 00 00
   4.944699 1  6B              Rx   d 8 53 00 00 00 49 01 00 00
   4.954750 1  6B              Rx   d 8 53 00 00 00 49 01 00 00
   4.964613 1  6B              Rx   d 8 53 00 00 00 49 01 00 00
   4.974591 1  6B              Rx   d 8 53 00 00 00 49 01 00 00
   4.984581 1  6B              Rx   d 8 53 00 00 00 49 01 00 00
   4.994628 1  6B              Rx   d 8 53 00 00 00 49 01 00 00
   5.004618 1  6B              Rx   d 8 53 00 00 00 49 01 00 00
   5.014550 1  6B              Rx   d 8 53 00 00 00 49 01 00 00
   5.024603 1  6B              Rx   d 8 53 00 00 00 49 01 00 00
   5.034597 1  6B              Rx   d 8 53 00 00 00 48 01 00 00
   5.044591 1  6B              Rx   d 8 53 00 00 00 48 01 00 00
   5.054503 1  6B              Rx   d 8 53 00 00 00 48 01 00 00
   5.064553 1  6B              Rx   d 8 53 00 00 00 48 01 00 00
   5.074545 1  6B              Rx   d 8 53 00 00 00 48 01 00 00
   5.084471 1  6B              Rx   d 8 53 00 00 00 48 01 00 00
   5.094531 1  6B              Rx   d 8 53 00 00 00 48 01 00 00
   5.104528 1  6B              Rx   d 8 53 00 00 00 48 01 00 00
   5.114513 1  6B              Rx   d 8 53 00 00 00 48 01 00 00
   5.124508 1  6B              Rx   d 8 53 00 00 00 48 01 00 00
   5.134486 1  6B              Rx   d 8 53 00 00 00 48 01 00 00
   5.144487 1  6B              Rx   d 8 53 00 00 00 48 01 00 00
   5.154471 1  6B              Rx   d 8 53 00 00 00 48 01 00 00
   5.164466 1  6B              Rx   d 8 53 00 00 00 48 01 00 00
   5.174441 1  6B              Rx   d 8 53 00 00 00 48 01 00 00
   5.184434 1  6B              Rx   d 8 53 00 00 00 48 01 00 00
   5.194370 1  6B              Rx   d 8 53 00 00 00 48 01 00 00
   5.204414 1  6B              Rx   d 8 53 00 00 00 48 01 00 00
   5.214411 1  6B              Rx   d 8 53 00 00 00 48 01 00 00
   5.224410 1  6B              Rx   d 8 53 00 00 00 48 01 00 00
   5.234391 1  6B              Rx   d 8 53 00 00 00 48 01 00 00
   5.244390 1  6B              Rx   d 8 53 00 00 00 48 01 00 00
   5.254379 1  6B              Rx   d 8 53 00 00 00 48 01 00 00
   5.264358 1  6B              Rx   d 8 53 00 00 00 48 01 00 00
   5.274355 1  6B              Rx   d 8 53 00 00 00 48 01 00 00
   5.284336 1  6B              Rx   d 8 53 00 00 00 48 01 00 00
   5.294347 1  6B              Rx   d 8 53 00 00 00 48 01 00 00
   5.304323 1  6B              Rx   d 8 53 00 00 00 48 01 00 00
   5.314307 1  6B              Rx   d 8 53 00 00 00 48 01 00 00
   5.324304 1  6B              Rx   d 8 53 00 00 00 48 01 00 00
   5.334300 1  6B              Rx   d 8 53 00 00 00 48 01 00 00
   5.344283 1  6B              Rx   d 8 53 00 00 00 48 01 00 00
   5.354275 1  6B              Rx   d 8 53 00 00 00 48 01 00 00
   5.364261 1  6B              Rx   d 8 53 00 00 00 48 01 00 00
   5.374267 1  6B              Rx   d 8 53 00 00 00 48 01 00 00
   5.384249 1  6B              Rx   d 8 53 00 00 00 48 01 00 00
   5.394240 1  6B              Rx   d 8 53 00 00 00 48 01 00 00
   5.404228 1  6B              Rx   d 8 53 00 00 00 48 01 00 00
   5.414213 1  6B              Rx   d 8 53 00 00 00 48 01 00 00
   5.424196 1  6B              Rx   d 8 53 00 00 00 48 01 00 00
   5.434189 1  6B              Rx   d 8 53 00 00 00 48 01 00 00
   5.444191 1  6B              Rx   d 8 53 00 00 00 48 01 00 00
   5.454185 1  6B              Rx   d 8 53 00 00 00 48 01 00 00
   5.464161 1  6B              Rx   d 8 53 00 00 00 48 01 00 00
   5.474154 1  6B              Rx   d 8 53 00 00 00 48 01 00 00
   5.484145 1  6B              Rx   d 8 53 00 00 00 48 01 00 00
   5.494133 1  6B              Rx   d 8 53 00 00 00 48 01 00 00
   5.504121 1  6B              Rx   d 8 53 00 00 00 48 01 00 00
   5.514116 1  6B              Rx   d 8 53 00 00 00 48 01 00 00
   5.524100 1  6B              Rx   d 8 53 00 00 00 47 01 00 00
   5.534093 1  6B              Rx   d 8 53 00 00 00 47 01 00 00
   5.544076 1  6B              Rx   d 8 53 00 00 00 47 01 00 00
   5.554074 1  6B              Rx   d 8 53 00 00 00 47 01 00 00
   5.564063 1  6B              Rx   d 8 53 00 00 00 47 01 00 00
   5.574047 1  6B              Rx   d 8 53 00 00 00 47 01 00 00
   5.584036 1  6B              Rx   d 8 53 00 00 00 47 01 00 00
   5.594023 1  6B              Rx   d 8 53 00 00 00 47 01 00 00
   5.604028 1  6B              Rx   d 8 53 00 00 00 47 01 00 00
   5.614009 1  6B              Rx   d 8 53 00 00 00 47 01 00 00
   5.624008 1  6B              Rx   d 8 53 00 00 00 47 01 00 00
   5.633984 1  6B              Rx   d 8 53 00 00 00 47 01 00 00
   5.643987 1  6B              Rx   d 8 53 00 00 00 47 01 00 00
   5.653967 1  6B              Rx   d 8 53 00 00 00 47 01 00 00
   5.663892 1  6B              Rx   d 8 53 00 00 00 47 01 00 00
   5.673948 1  6B              Rx   d 8 53 00 00 00 47 01 00 00
   5.683942 1  6B              Rx   d 8 53 00 00 00 47 01 00 00
   5.693931 1  6B              Rx   d 8 53 00 00 00 47 01 00 00
   5.703911 1  6B              Rx   d 8 53 00 00 00 47 01 00 00
   5.713914 1  6B              Rx   d 8 53 00 00 00 47 01 00 00
   5.723910 1  6B              Rx   d 8 53 00 00 00 47 01 00 00
   5.733894 1  6B              Rx   d 8 53 00 00 00 47 01 00 00
   5.743873 1  6B              Rx   d 8 53 00 00 00 47 01 00 00
   5.753874 1  6B              Rx   d 8 53 00 00 00 47 01 00 00
   5.763865 1  6B              Rx   d 8 53 00 00 00 47 01 00 00
   5.773859 1  6B              Rx   d 8 53 00 00 00 47 01 00 00
   5.783856 1  6B              Rx   d 8 53 00 00 00 47 01 00 00
   5.793828 1  6B              Rx   d 8 53 00 00 00 47 01 00 00
   5.803755 1  6B              Rx   d 8 53 00 00 00 46 01 00 00
   5.813814 1  6B              Rx   d 8 53 00 00 00 46 01 00 00
   5.823797 1  6B              Rx   d 8 53 00 00 00 46 01 00 00
   5.833780 1  6B              Rx   d 8 53 00 00 00 46 01 00 00
   5.843774 1  6B              Rx   d 8 53 00 00 00 46 01 00 00
   5.853780 1  6B              Rx   d 8 53 00 00 00 46 01 00 00
   5.863763 1  6B              Rx   d 8 53 00 00 00 46 01 00 00
   5.873745 1  6B              Rx   d 8 53 00 00 00 46 01 00 00
   5.883748 1  6B              Rx   d 8 53 00 00 00 46 01 00 00
   5.893727 1  6B              Rx   d 8 53 00 00 00 46 01 00 00
   5.903729 1  6B              Rx   d 8 53 00 00 00 46 01 00 00
   5.913708 1  6B              Rx   d 8 53 00 00 00 46 01 00 00
   5.923704 1  6B              Rx   d 8 53 00 00 00 46 01 00 00
   5.933696 1  6B              Rx   d 8 53 00 00 00 46 01 00 00
   5.943693 1  6B              Rx   d 8 53 00 00 00 46 01 00 00
   5.953604 1  6B              Rx   d 8 53 00 00 00 46 01 00 00
   5.963659 1  6B              Rx   d 8 53 00 00 00 46 01 00 00
   5.973641 1  6B              Rx   d 8 53 00 00 00 46 01 00 00
   5.983640 1  6B              Rx   d 8 53 00 00 00 46 01 00 00
   5.993638 1  6B              Rx   d 8 53 00 00 00 46 01 00 00
   6.003617 1  6B              Rx   d 8 53 00 00 00 46 01 00 00
   6.013600 1  6B              Rx   d 8 53 00 00 00 46 01 00 00
   6.023598 1  6B              Rx   d 8 53 00 00 00 46 01 00 00
   6.033590 1  6B              Rx   d 8 53 00 00 00 46 01 00 00
   6.043573 1  6B              Rx   d 8 53 00 00 00 46 01 00 00
   6.053564 1  6B              Rx   d 8 53 00 00 00 45 01 00 00
   6.063551 1  6B              Rx   d 8 53 00 00 00 45 01 00 00
   6.073542 1  6B              Rx   d 8 53 00 00 00 45 01 00 00
   6.083530 1  6B              Rx   d 8 53 00 00 00 45 01 00 00
   6.093531 1  6B              Rx   d 8 53 00 00 00 45 01 00 00
   6.103520 1  6B              Rx   d 8 53 00 00 00 45 01 00 00
   6.113505 1  6B              Rx   d 8 53 00 00 00 45 01 00 00
   6.123495 1  6B              Rx   d 8 53 00 00 00 45 01 00 00
   6.133491 1  6B              Rx   d 8 53 00 00 00 45 01 00 00
   6.143492 1  6B              Rx   d 8 53 00 00 00 45 01 00 00
   6.153474 1  6B              Rx   d 8 53 00 00 00 44 01 00 00
   6.163452 1  6B              Rx   d 8 53 00 00 00 44 01 00 00
   6.173382 1  6B              Rx   d 8 53 00 00 00 44 01 00 00
   6.183429 1  6B              Rx   d 8 53 00 00 00 44 01 00 00
   6.193367 1  6B              Rx   d 8 53 00 00 00 44 01 00 00
   6.203424 1  6B              Rx   d 8 53 00 00 00 44 01 00 00
   6.213413 1  6B              Rx   d 8 53 00 00 00 44 01 00 00
   6.223395 1  6B              Rx   d 8 53 00 00 00 44 01 00 00
   6.233384 1  6B              Rx   d 8 53 00 00 00 44 01 00 00
   6.243377 1  6B              Rx   d 8 53 00 00 00 44 01 00 00
   6.253370 1  6B              Rx   d 8 53 00 00 00 44 01 00 00
   6.263359 1  6B              Rx   d 8 53 00 00 00 44 01 00 00
   6.273336 1  6B              Rx   d 8 53 00 00 00 44 01 00 00
   6.283330 1  6B              Rx   d 8 53 00 00 00 44 01 00 00
   6.293320 1  6B              Rx   d 8 53 00 00 00 44 01 00 00
   6.303313 1  6B              Rx   d 8 53 00 00 00 44 01 00 00
   6.313305 1  6B              Rx   d 8 53 00 00 00 44 01 00 00
   6.323293 1  6B              Rx   d 8 53 00 00 00 44 01 00 00
   6.333283 1  6B              Rx   d 8 53 00 00 00 43 01 00 00
   6.343283 1  6B              Rx   d 8 53 00 00 00 43 01 00 00
   6.353265 1  6B              Rx   d 8 53 00 00 00 43 01 00 00
   6.363254 1  6B              Rx   d 8 53 00 00 00 43 01 00 00
   6.373244 1  6B              Rx   d 8 53 00 00 00 43 01 00 00
   6.383236 1  6B              Rx   d 8 53 00 00 00 43 01 00 00
   6.393222 1  6B              Rx   d 8 53 00 00 00 43 01 00 00
   6.403216 1  6B              Rx   d 8 53 00 00 00 43 01 00 00
   6.413202 1  6B              Rx   d 8 53 00 00 00 43 01 00 00
   6.423199 1  6B              Rx   d 8 53 00 00 00 43 01 00 00
   6.433184 1  6B              Rx   d 8 53 00 00 00 43 01 00 00
   6.443175 1  6B              Rx   d 8 53 00 00 00 43 01 00 00
   6.453105 1  6B              Rx   d 8 53 00 00 00 43 01 00 00
   6.463105 1  6B              Rx   d 8 53 00 00 00 43 01 00 00
   6.473138 1  6B              Rx   d 8 53 00 00 00 43 01 00 00
   6.483136 1  6B              Rx   d 8 53 00 00 00 43 01 00 00
   6.493119 1  6B              Rx   d 8 53 00 00 00 43 01 00 00
   6.503105 1  6B              Rx   d 8 53 00 00 00 43 01 00 00
   6.513043 1  6B              Rx   d 8 53 00 00 00 42 01 00 00
   6.523089 1  6B              Rx   d 8 53 00 00 00 42 01 00 00
   6.533102 1  6B              Rx   d 8 53 00 00 00 42 01 00 00
   6.543013 1  6B              Rx   d 8 53 00 00 00 42 01 00 00
   6.553069 1  6B              Rx   d 8 53 00 00 00 41 01 00 00
   6.563054 1  6B              Rx   d 8 53 00 00 00 41 01 00 00
   6.573042 1  6B              Rx   d 8 53 00 00 00 41 01 00 00
   6.583029 1  6B              Rx   d 8 53 00 00 00 41 01 00 00
   6.593041 1  6B              Rx   d 8 53 00 00 00 40 01 00 00
   6.603013 1  6B              Rx   d 8 53 00 00 00 40 01 00 00
   6.613000 1  6B              Rx   d 8 53 00 00 00 3F 01 00 00
   6.622992 1  6B              Rx   d 8 53 00 00 00 3E 01 00 00
   6.632992 1  6B              Rx   d 8 53 00 00 00 3E 01 00 00
   6.642969 1  6B              Rx   d 8 53 00 00 00 3D 01 00 00
   6.652970 1  6B              Rx   d 8 53 00 00 00 3D 01 00 00
   6.662951 1  6B              Rx   d 8 53 00 00 00 3D 01 00 00
   6.672939 1  6B              Rx   d 8 53 00 00 00 3D 01 00 00
   6.682866 1  6B              Rx   d 8 53 00 00 00 3D 01 00 00
   6.692920 1  6B              Rx   d 8 53 00 00 00 3C 01 00 00
   6.702916 1  6B              Rx   d 8 53 00 00 00 3C 01 00 00
   6.712906 1  6B              Rx   d 8 53 00 00 00 3C 01 00 00
   6.722898 1  6B              Rx   d 8 53 00 00 00 3C 01 00 00
   6.732877 1  6B              Rx   d 8 53 00 00 00 3C 01 00 00
   6.742877 1  6B              Rx   d 8 53 00 00 00 3B 01 00 00
   6.752868 1  6B              Rx   d 8 53 00 00 00 3B 01 00 00
   6.762849 1  6B              Rx   d 8 53 00 00 00 3B 01 00 00
   6.772839 1  6B              Rx   d 8 53 00 00 00 3B 01 00 00
   6.782976 1  6B              Rx   d 8 53 00 00 00 3B 01 00 00
   6.792762 1  6B              Rx   d 8 53 00 00 00 3A 01 00 00
   6.802751 1  6B              Rx   d 8 53 00 00 00 3A 01 00 00
   6.812801 1  6B              Rx   d 8 53 00 00 00 3A 01 00 00
   6.822800 1  6B              Rx   d 8 53 00 00 00 3A 01 00 00
   6.832786 1  6B              Rx   d 8 53 00 00 00 3A 01 00 00
   6.842765 1  6B              Rx   d 8 53 00 00 00 39 01 00 00
   6.852781 1  6B              Rx   d 8 53 00 00 00 39 01 00 00
   6.862747 1  6B              Rx   d 8 53 00 00 00 39 01 00 00
   6.872742 1  6B              Rx   d 8 53 00 00 00 39 01 00 00
   6.882726 1  6B              Rx   d 8 53 00 00 00 39 01 00 00
   6.892720 1  6B              Rx   d 8 53 00 00 00 38 01 00 00
   6.902706 1  6B              Rx   d 8 53 00 00 00 38 01 00 00
   6.912695 1  6B              Rx   d 8 53 00 00 00 38 01 00 00
   6.922697 1  6B              Rx   d 8 53 00 00 00 37 01 00 00
   6.932698 1  6B              Rx   d 8 53 00 00 00 37 01 00 00
   6.942675 1  6B              Rx   d 8 53 00 00 00 37 01 00 00
   6.952656 1  6B              Rx   d 8 53 00 00 00 36 01 00 00
   6.962645 1  6B              Rx   d 8 53 00 00 00 35 01 00 00
   6.972640 1  6B              Rx   d 8 53 00 00 00 35 01 00 00
   6.982642 1  6B              Rx   d 8 53 00 00 00 35 01 00 00
   6.992560 1  6B              Rx   d 8 53 00 00 00 35 01 00 00
   7.002618 1  6B              Rx   d 8 53 00 00 00 34 01 00 00
   7.012599 1  6B              Rx   d 8 53 00 00 00 34 01 00 00
   7.022599 1  6B              Rx   d 8 53 00 00 00 33 01 00 00
   7.032601 1  6B              Rx   d 8 53 00 00 00 33 01 00 00
   7.042574 1  6B              Rx   d 8 53 00 00 00 32 01 00 00
   7.052561 1  6B              Rx   d 8 53 00 00 00 32 01 00 00
   7.062493 1  6B              Rx   d 8 53 00 00 00 31 01 00 00
   7.072543 1  6B              Rx   d 8 53 00 00 00 30 01 00 00
   7.082527 1  6B              Rx   d 8 53 00 00 00 2F 01 00 00
   7.092518 1  6B              Rx   d 8 53 00 00 00 2D 01 00 00
   7.102441 1  6B              Rx   d 8 53 00 00 00 2C 01 00 00
   7.112503 1  6B              Rx   d 8 53 00 00 00 2B 01 00 00
   7.122490 1  6B              Rx   d 8 53 00 00 00 2B 01 00 00
   7.132414 1  6B              Rx   d 8 53 00 00 00 2B 01 00 00
   7.142464 1  6B              Rx   d 8 53 00 00 00 2B 01 00 00
   7.152464 1  6B              Rx   d 8 53 00 00 00 2A 01 00 00
   7.162443 1  6B              Rx   d 8 53 00 00 00 2A 01 00 00
   7.172439 1  6B              Rx   d 8 53 00 00 00 2A 01 00 00
   7.182421 1  6B              Rx   d 8 53 00 00 00 29 01 00 00
   7.192362 1  6B              Rx   d 8 53 00 00 00 29 01 00 00
   7.202350 1  6B              Rx   d 8 53 00 00 00 29 01 00 00
   7.212349 1  6B              Rx   d 8 53 00 00 00 29 01 00 00
   7.222416 1  6B              Rx   d 8 53 00 00 00 29 01 00 00
   7.232398 1  6B              Rx   d 8 53 00 00 00 29 01 00 00
   7.242373 1  6B              Rx   d 8 52 00 00 00 29 01 00 00
   7.252364 1  6B              Rx   d 8 52 00 00 00 29 01 00 00
   7.262347 1  6B              Rx   d 8 52 00 00 00 29 01 00 00
   7.272337 1  6B              Rx   d 8 52 00 00 00 29 01 00 00
   7.282326 1  6B              Rx   d 8 52 00 00 00 29 01 00 00
   7.292324 1  6B              Rx   d 8 52 00 00 00 29 01 00 00
   7.302262 1  6B              Rx   d 8 52 00 00 00 29 01 00 00
   7.312297 1  6B              Rx   d 8 52 00 00 00 29 01 00 00
   7.322298 1  6B              Rx   d 8 52 00 00 00 29 01 00 00
   7.332220 1  6B              Rx   d 8 52 00 00 00 29 01 00 00
   7.342280 1  6B              Rx   d 8 52 00 00 00 29 01 00 00
   7.352260 1  6B              Rx   d 8 52 00 00 00 29 01 00 00
   7.362244 1  6B              Rx   d 8 52 00 00 00 29 01 00 00
   7.372235 1  6B              Rx   d 8 52 00 00 00 29 01 00 00
   7.382220 1  6B              Rx   d 8 52 00 00 00 29 01 00 00
   7.392221 1  6B              Rx   d 8 52 00 00 00 29 01 00 00
   7.402203 1  6B              Rx   d 8 52 00 00 00 29 01 00 00
   7.412203 1  6B              Rx   d 8 52 00 00 00 28 01 00 00
   7.422192 1  6B              Rx   d 8 52 00 00 00 28 01 00 00
   7.432183 1  6B              Rx   d 8 52 00 00 00 28 01 00 00
   7.442165 1  6B              Rx   d 8 52 00 00 00 28 01 00 00
   7.452148 1  6B              Rx   d 8 52 00 00 00 28 01 00 00
   7.462143 1  6B              Rx   d 8 52 00 00 00 28 01 00 00
   7.472132 1  6B              Rx   d 8 52 00 00 00 28 01 00 00
   7.482065 1  6B              Rx   d 8 52 00 00 00 27 01 00 00
   7.492105 1  6B              Rx   d 8 52 00 00 00 26 01 00 00
   7.502102 1  6B              Rx   d 8 52 00 00 00 24 01 00 00
   7.512033 1  6B              Rx   d 8 52 00 00 00 23 01 00 00
   7.522085 1  6B              Rx   d 8 52 00 00 00 22 01 00 00
   7.532078 1  6B              Rx   d 8 52 00 00 00 21 01 00 00
   7.542076 1  6B              Rx   d 8 52 00 00 00 21 01 00 00
   7.552067 1  6B              Rx   d 8 52 00 00 00 21 01 00 00
   7.562054 1  6B              Rx   d 8 52 00 00 00 21 01 00 00
   7.572029 1  6B              Rx   d 8 52 00 00 00 1F 01 00 00
   7.582023 1  6B              Rx   d 8 52 00 00 00 1E 01 00 00
   7.592012 1  6B              Rx   d 8 52 00 00 00 1E 01 00 00
   7.602009 1  6B              Rx   d 8 52 00 00 00 1D 01 00 00
   7.611993 1  6B              Rx   d 8 52 00 00 00 1D 01 00 00
   7.621988 1  6B              Rx   d 8 52 00 00 00 1C 01 00 00
   7.631982 1  6B              Rx   d 8 52 00 00 00 1B 01 00 00
   7.641976 1  6B              Rx   d 8 52 00 00 00 1A 01 00 00
   7.651954 1  6B              Rx   d 8 52 00 00 00 17 01 00 00
   7.661960 1  6B              Rx   d 8 52 00 00 00 11 01 00 00
   7.671936 1  6B              Rx   d 8 52 00 00 00 08 01 00 00
   7.681936 1  6B              Rx   d 8 52 00 00 00 06 01 00 00
   7.691921 1  6B              Rx   d 8 52 00 00 00 06 01 00 00
   7.701913 1  6B              Rx   d 8 52 00 00 00 05 01 00 00
   7.711906 1  6B              Rx   d 8 52 00 00 00 02 01 00 00
   7.721824 1  6B              Rx   d 8 52 00 00 00 FE 00 00 00
   7.731873 1  6B              Rx   d 8 52 00 00 00 FD 00 00 00
   7.741866 1  6B              Rx   d 8 52 00 00 00 FD 00 00 00
   7.751793 1  6B              Rx   d 8 52 00 00 00 FD 00 00 00
   7.761796 1  6B              Rx   d 8 52 00 00 00 FD 00 00 00
   7.771837 1  6B              Rx   d 8 52 00 00 00 FD 00 00 00
   7.781822 1  6B              Rx   d 8 52 00 00 00 FD 00 00 00
   7.791833 1  6B              Rx   d 8 52 00 00 00 FD 00 00 00
   7.801810 1  6B              Rx   d 8 52 00 00 00 FC 00 00 00
   7.811789 1  6B              Rx   d 8 52 00 00 00 FC 00 00 00
   7.821797 1  6B              Rx   d 8 52 00 00 00 FC 00 00 00
   7.831779 1  6B              Rx   d 8 52 00 00 00 FC 00 00 00
   7.841715 1  6B              Rx   d 8 52 00 00 00 FB 00 00 00
   7.851776 1  6B              Rx   d 8 52 00 00 00 FA 00 00 00
   7.861746 1  6B              Rx   d 8 52 00 00 00 FA 00 00 00
   7.871737 1  6B              Rx   d 8 52 00 00 00 FA 00 00 00
   7.881731 1  6B              Rx   d 8 52 00 00 00 FA 00 00 00
   7.891649 1  6B              Rx   d 8 52 00 00 00 FA 00 00 00
   7.901698 1  6B              Rx   d 8 52 00 00 00 FA 00 00 00
   7.911699 1  6B              Rx   d 8 52 00 00 00 FA 00 00 00
   7.921696 1  6B              Rx   d 8 52 00 00 00 FA 00 00 00
   7.931686 1  6B              Rx   d 8 52 00 00 00 FA 00 00 00
   7.941671 1  6B              Rx   d 8 52 00 00 00 FA 00 00 00
   7.951669 1  6B              Rx   d 8 52 00 00 00 FA 00 00 00
   7.961641 1  6B              Rx   d 8 52 00 00 00 FA 00 00 00
   7.971576 1  6B              Rx   d 8 52 00 00 00 FA 00 00 00
   7.981630 1  6B              Rx   d 8 52 00 00 00 FA 00 00 00
   7.991618 1  6B              Rx   d 8 52 00 00 00 FB 00 00 00
   8.001613 1  6B              Rx   d 8 52 00 00 00 FB 00 00 00
   8.011598 1  6B              Rx   d 8 52 00 00 00 FB 00 00 00
   8.021605 1  6B              Rx   d 8 52 00 00 00 FB 00 00 00
   8.031584 1  6B              Rx   d 8 52 00 00 00 FB 00 00 00
   8.041592 1  6B              Rx   d 8 52 00 00 00 FA 00 00 00
   8.051560 1  6B              Rx   d 8 52 00 00 00 FA 00 00 00
   8.061544 1  6B              Rx   d 8 52 00 00 00 FA 00 00 00
   8.071537 1  6B              Rx   d 8 52 00 00 00 FA 00 00 00
   8.081539 1  6B              Rx   d 8 52 00 00 00 FA 00 00 00
   8.091539 1  6B              Rx   d 8 52 00 00 00 FB 00 00 00
   8.101513 1  6B              Rx   d 8 52 00 00 00 FB 00 00 00
   8.111495 1  6B              Rx   d 8 52 00 00 00 FB 00 00 00
   8.121511 1  6B              Rx   d 8 52 00 00 00 FB 00 00 00
   8.131473 1  6B              Rx   d 8 52 00 00 00 FB 00 00 00
   8.141478 1  6B              Rx   d 8 52 00 00 00 FB 00 00 00
   8.151465 1  6B              Rx   d 8 52 00 00 00 FB 00 00 00
   8.161454 1  6B              Rx   d 8 52 00 00 00 FB 00 00 00
   8.171436 1  6B              Rx   d 8 52 00 00 00 FB 00 00 00
   8.181425 1  6B              Rx   d 8 52 00 00 00 FB 00 00 00
   8.191420 1  6B              Rx   d 8 52 00 00 00 FB 00 00 00
   8.201416 1  6B              Rx   d 8 52 00 00 00 FB 00 00 00
   8.211399 1  6B              Rx   d 8 52 00 00 00 FB 00 00 00
   8.221378 1  6B              Rx   d 8 52 00 00 00 FB 00 00 00
   8.231375 1  6B              Rx   d 8 52 00 00 00 FB 00 00 00
   8.241365 1  6B              Rx   d 8 52 00 00 00 FB 00 00 00
   8.251361 1  6B              Rx   d 8 52 00 00 00 FB 00 00 00
   8.261347 1  6B              Rx   d 8 52 00 00 00 FB 00 00 00
   8.271337 1  6B              Rx   d 8 52 00 00 00 FB 00 00 00
   8.281327 1  6B              Rx   d 8 52 00 00 00 FB 00 00 00
   8.291322 1  6B              Rx   d 8 52 00 00 00 FB 00 00 00
   8.301305 1  6B              Rx   d 8 52 00 00 00 FB 00 00 00
   8.311300 1  6B              Rx   d 8 52 00 00 00 FB 00 00 00
   8.321297 1  6B              Rx   d 8 52 00 00 00 FB 00 00 00
   8.331219 1  6B              Rx   d 8 52 00 00 00 FB 00 00 00
   8.341272 1  6B              Rx   d 8 52 00 00 00 FB 00 00 00
   8.351261 1  6B              Rx   d 8 52 00 00 00 FB 00 00 00
   8.361244 1  6B              Rx   d 8 52 00 00 00 FC 00 00 00
   8.371233 1  6B              Rx   d 8 52 00 00 00 FC 00 00 00
   8.381230 1  6B              Rx   d 8 52 00 00 00 FC 00 00 00
   8.391234 1  6B              Rx   d 8 52 00 00 00 FD 00 00 00
   8.401211 1  6B              Rx   d 8 52 00 00 00 FD 00 00 00
   8.411128 1  6B              Rx   d 8 52 00 00 00 FD 00 00 00
   8.421121 1  6B              Rx   d 8 52 00 00 00 FD 00 00 00
   8.431171 1  6B              Rx   d 8 52 00 00 00 FD 00 00 00
   8.441160 1  6B              Rx   d 8 52 00 00 00 FD 00 00 00
   8.451096 1  6B              Rx   d 8 52 00 00 00 FE 00 00 00
   8.461141 1  6B              Rx   d 8 52 00 00 00 FE 00 00 00
   8.471140 1  6B              Rx   d 8 52 00 00 00 FE 00 00 00
   8.481135 1  6B              Rx   d 8 52 00 00 00 FE 00 00 00
   8.491126 1  6B              Rx   d 8 52 00 00 00 FE 00 00 00
   8.501104 1  6B              Rx   d 8 52 00 00 00 FF 00 00 00
   8.511035 1  6B              Rx   d 8 52 00 00 00 FF 00 00 00
   8.521033 1  6B              Rx   d 8 52 00 00 00 FF 00 00 00
   8.531069 1  6B              Rx   d 8 52 00 00 00 00 01 00 00
   8.541076 1  6B              Rx   d 8 52 00 00 00 00 01 00 00
   8.550996 1  6B              Rx   d 8 52 00 00 00 00 01 00 00
   8.561064 1  6B              Rx   d 8 52 00 00 00 00 01 00 00
   8.571041 1  6B              Rx   d 8 52 00 00 00 00 01 00 00
   8.581023 1  6B              Rx   d 8 52 00 00 00 00 01 00 00
   8.591011 1  6B              Rx   d 8 52 00 00 00 00 01 00 00
   8.601019 1  6B              Rx   d 8 52 00 00 00 01 01 00 00
   8.611015 1  6B              Rx   d 8 52 00 00 00 01 01 00 00
   8.620985 1  6B              Rx   d 8 52 00 00 00 02 01 00 00
   8.630979 1  6B              Rx   d 8 52 00 00 00 02 01 00 00
   8.640963 1  6B              Rx   d 8 52 00 00 00 02 01 00 00
   8.650952 1  6B              Rx   d 8 52 00 00 00 02 01 00 00
   8.660952 1  6B              Rx   d 8 52 00 00 00 02 01 00 00
   8.670943 1  6B              Rx   d 8 52 00 00 00 03 01 00 00
   8.680918 1  6B              Rx   d 8 52 00 00 00 03 01 00 00
   8.690915 1  6B              Rx   d 8 52 00 00 00 03 01 00 00
   8.700896 1  6B              Rx   d 8 52 00 00 00 04 01 00 00
   8.710888 1  6B              Rx   d 8 52 00 00 00 04 01 00 00
   8.720817 1  6B              Rx   d 8 52 00 00 00 04 01 00 00
   8.730877 1  6B              Rx   d 8 52 00 00 00 04 01 00 00
   8.740861 1  6B              Rx   d 8 52 00 00 00 04 01 00 00
   8.750848 1  6B              Rx   d 8 52 00 00 00 05 01 00 00
   8.760842 1  6B              Rx   d 8 52 00 00 00 06 01 00 00
   8.770832 1  6B              Rx   d 8 52 00 00 00 08 01 00 00
   8.780822 1  6B              Rx   d 8 52 00 00 00 09 01 00 00
   8.790812 1  6B              Rx   d 8 52 00 00 00 0A 01 00 00
   8.800801 1  6B              Rx   d 8 52 00 00 00 0A 01 00 00
   8.810732 1  6B              Rx   d 8 52 00 00 00 0A 01 00 00
   8.820779 1  6B              Rx   d 8 52 00 00 00 0A 01 00 00
   8.830772 1  6B              Rx   d 8 52 00 00 00 0B 01 00 00
   8.840789 1  6B              Rx   d 8 52 00 00 00 0C 01 00 00
   8.850699 1  6B              Rx   d 8 52 00 00 00 0C 01 00 00
   8.860744 1  6B              Rx   d 8 52 00 00 00 0C 01 00 00
   8.870752 1  6B              Rx   d 8 52 00 00 00 0C 01 00 00
   8.880729 1  6B              Rx   d 8 52 00 00 00 0C 01 00 00
   8.890710 1  6B              Rx   d 8 52 00 00 00 0C 01 00 00
   8.900703 1  6B              Rx   d 8 52 00 00 00 0D 01 00 00
   8.910633 1  6B              Rx   d 8 52 00 00 00 0F 01 00 00
   8.920687 1  6B              Rx   d 8 52 00 00 00 10 01 00 00
   8.930610 1  6B              Rx   d 8 52 00 00 00 10 01 00 00
   8.940616 1  6B              Rx   d 8 52 00 00 00 10 01 00 00
   8.950661 1  6B              Rx   d 8 52 00 00 00 10 01 00 00
   8.960638 1  6B              Rx   d 8 52 00 00 00 10 01 00 00
   8.970638 1  6B              Rx   d 8 52 00 00 00 10 01 00 00
   8.980625 1  6B              Rx   d 8 52 00 00 00 11 01 00 00
   8.990614 1  6B              Rx   d 8 52 00 00 00 11 01 00 00
   9.000600 1  6B              Rx   d 8 52 00 00 00 11 01 00 00
   9.010594 1  6B              Rx   d 8 52 00 00 00 11 01 00 00
   9.020607 1  6B              Rx   d 8 52 00 00 00 11 01 00 00
   9.030587 1  6B              Rx   d 8 52 00 00 00 12 01 00 00
   9.040576 1  6B              Rx   d 8 52 00 00 00 12 01 00 00
   9.050551 1  6B              Rx   d 8 52 00 00 00 12 01 00 00
   9.060536 1  6B              Rx   d 8 52 00 00 00 12 01 00 00
   9.070533 1  6B              Rx   d 8 52 00 00 00 12 01 00 00
   9.080521 1  6B              Rx   d 8 52 00 00 00 12 01 00 00
   9.090513 1  6B              Rx   d 8 52 00 00 00 12 01 00 00
   9.100513 1  6B              Rx   d 8 52 00 00 00 12 01 00 00
   9.110502 1  6B              Rx   d 8 52 00 00 00 14 01 00 00
   9.120481 1  6B              Rx   d 8 52 00 00 00 15 01 00 00
   9.130470 1  6B              Rx   d 8 52 00 00 00 16 01 00 00
   9.140465 1  6B              Rx   d 8 52 00 00 00 16 01 00 00
   9.150388 1  6B              Rx   d 8 52 00 00 00 16 01 00 00
   9.160455 1  6B              Rx   d 8 52 00 00 00 17 01 00 00
   9.170427 1  6B              Rx   d 8 52 00 00 00 17 01 00 00
   9.180417 1  6B              Rx   d 8 52 00 00 00 17 01 00 00
   9.190414 1  6B              Rx   d 8 52 00 00 00 18 01 00 00
   9.200339 1  6B              Rx   d 8 52 00 00 00 1A 01 00 00
   9.210386 1  6B              Rx   d 8 52 00 00 00 1B 01 00 00
   9.220384 1  6B              Rx   d 8 51 00 00 00 1C 01 00 00
   9.230363 1  6B              Rx   d 8 51 00 00 00 1C 01 00 00
   9.240354 1  6B              Rx   d 8 51 00 00 00 1D 01 00 00
   9.250343 1  6B              Rx   d 8 51 00 00 00 1D 01 00 00
   9.260337 1  6B              Rx   d 8 51 00 00 00 1E 01 00 00
   9.270331 1  6B              Rx   d 8 51 00 00 00 1F 01 00 00
   9.280260 1  6B              Rx   d 8 51 00 00 00 21 01 00 00
   9.290306 1  6B              Rx   d 8 51 00 00 00 22 01 00 00
   9.300293 1  6B              Rx   d 8 51 00 00 00 23 01 00 00
   9.310280 1  6B              Rx   d 8 51 00 00 00 24 01 00 00
   9.320214 1  6B              Rx   d 8 51 00 00 00 25 01 00 00
   9.330265 1  6B              Rx   d 8 51 00 00 00 26 01 00 00
   9.340252 1  6B              Rx   d 8 51 00 00 00 27 01 00 00
   9.350248 1  6B              Rx   d 8 51 00 00 00 28 01 00 00
   9.360245 1  6B              Rx   d 8 51 00 00 00 28 01 00 00
   9.370163 1  6B              Rx   d 8 51 00 00 00 28 01 00 00
   9.380219 1  6B              Rx   d 8 51 00 00 00 28 01 00 00
   9.390206 1  6B              Rx   d 8 51 00 00 00 2A 01 00 00
   9.400193 1  6B              Rx   d 8 51 00 00 00 2B 01 00 00
   9.410186 1  6B              Rx   d 8 51 00 00 00 2D 01 00 00
   9.420186 1  6B              Rx   d 8 51 00 00 00 2F 01 00 00
   9.430316 1  6B              Rx   d 8 51 00 00 00 30 01 00 00
   9.440169 1  6B              Rx   d 8 51 00 00 00 31 01 00 00
   9.450141 1  6B              Rx   d 8 51 00 00 00 31 01 00 00
   9.460136 1  6B              Rx   d 8 51 00 00 00 31 01 00 00
   9.470117 1  6B              Rx   d 8 51 00 00 00 31 01 00 00
   9.480115 1  6B              Rx   d 8 51 00 00 00 31 01 00 00
   9.490053 1  6B              Rx   d 8 51 00 00 00 33 01 00 00
   9.500098 1  6B              Rx   d 8 51 00 00 00 37 01 00 00
   9.510094 1  6B              Rx   d 8 51 00 00 00 3B 01 00 00
   9.520081 1  6B              Rx   d 8 51 00 00 00 3F 01 00 00
   9.530066 1  6B              Rx   d 8 51 00 00 00 3F 01 00 00
   9.540000 1  6B              Rx   d 8 51 00 00 00 3F 01 00 00
   9.550052 1  6B              Rx   d 8 51 00 00 00 3F 01 00 00
   9.560049 1  6B              Rx   d 8 51 00 00 00 3F 01 00 00
   9.570030 1  6B              Rx   d 8 51 00 00 00 3F 01 00 00
   9.580027 1  6B              Rx   d 8 51 00 00 00 3F 01 00 00
   9.590009 1  6B              Rx   d 8 52 00 00 00 3F 01 00 00
   9.599992 1  6B              Rx   d 8 52 00 00 00 3F 01 00 00
   9.609980 1  6B              Rx   d 8 52 00 00 00 3F 01 00 00
   9.619920 1  6B              Rx   d 8 52 00 00 00 3F 01 00 00
   9.629971 1  6B              Rx   d 8 52 00 00 00 40 01 00 00
   9.639953 1  6B              Rx   d 8 52 00 00 00 40 01 00 00
   9.649949 1  6B              Rx   d 8 52 00 00 00 40 01 00 00
   9.659934 1  6B              Rx   d 8 52 00 00 00 40 01 00 00
   9.669933 1  6B              Rx   d 8 52 00 00 00 40 01 00 00
   9.679910 1  6B              Rx   d 8 52 00 00 00 40 01 00 00
   9.689849 1  6B              Rx   d 8 52 00 00 00 40 01 00 00
   9.699898 1  6B              Rx   d 8 52 00 00 00 40 01 00 00
   9.709897 1  6B              Rx   d 8 52 00 00 00 40 01 00 00
   9.719875 1  6B              Rx   d 8 52 00 00 00 40 01 00 00
   9.729871 1  6B              Rx   d 8 52 00 00 00 40 01 00 00
   9.739863 1  6B              Rx   d 8 52 00 00 00 40 01 00 00
   9.749850 1  6B              Rx   d 8 52 00 00 00 40 01 00 00
   9.759845 1  6B              Rx   d 8 52 00 00 00 40 01 00 00
   9.769831 1  6B              Rx   d 8 52 00 00 00 40 01 00 00
   9.779812 1  6B              Rx   d 8 52 00 00 00 40 01 00 00
   9.789798 1  6B              Rx   d 8 52 00 00 00 40 01 00 00
   9.799789 1  6B              Rx   d 8 52 00 00 00 40 01 00 00
   9.809792 1  6B              Rx   d 8 52 00 00 00 40 01 00 00
   9.819773 1  6B              Rx   d 8 52 00 00 00 40 01 00 00
   9.829762 1  6B              Rx   d 8 52 00 00 00 40 01 00 00
   9.839756 1  6B              Rx   d 8 52 00 00 00 40 01 00 00
   9.849879 1  6B              Rx   d 8 52 00 00 00 40 01 00 00
   9.859751 1  6B              Rx   d 8 52 00 00 00 40 01 00 00
   9.869657 1  6B              Rx   d 8 52 00 00 00 40 01 00 00
   9.879724 1  6B              Rx   d 8 52 00 00 00 40 01 00 00
   9.889711 1  6B              Rx   d 8 52 00 00 00 40 01 00 00
   9.899691 1  6B              Rx   d 8 52 00 00 00 40 01 00 00
   9.909686 1  6B              Rx   d 8 52 00 00 00 40 01 00 00
   9.919668 1  6B              Rx   d 8 52 00 00 00 40 01 00 00
   9.929673 1  6B              Rx   d 8 52 00 00 00 40 01 00 00
   9.939665 1  6B              Rx   d 8 52 00 00 00 40 01 00 00
   9.949663 1  6B              Rx   d 8 52 00 00 00 40 01 00 00
   9.959584 1  6B              Rx   d 8 52 00 00 00 40 01 00 00
   9.969637 1  6B              Rx   d 8 52 00 00 00 40 01 00 00
   9.979615 1  6B              Rx   d 8 52 00 00 00 40 01 00 00
   9.989617 1  6B              Rx   d 8 52 00 00 00 40 01 00 00
   9.999604 1  6B              Rx   d 8 52 00 00 00 40 01 00 00
  10.009589 1  6B              Rx   d 8 52 00 00 00 40 01 00 00
  10.019574 1  6B              Rx   d 8 52 00 00 00 40 01 00 00
  10.029560 1  6B              Rx   d 8 52 00 00 00 40 01 00 00
  10.039554 1  6B              Rx   d 8 52 00 00 00 40 01 00 00
  10.049560 1  6B              Rx   d 8 52 00 00 00 40 01 00 00
  10.059527 1  6B              Rx   d 8 52 00 00 00 40 01 00 00
  10.069457 1  6B              Rx   d 8 52 00 00 00 40 01 00 00
  10.079520 1  6B              Rx   d 8 52 00 00 00 40 01 00 00
  10.089503 1  6B              Rx   d 8 52 00 00 00 40 01 00 00
  10.099492 1  6B              Rx   d 8 52 00 00 00 40 01 00 00
  10.109477 1  6B              Rx   d 8 52 00 00 00 40 01 00 00
  10.119478 1  6B              Rx   d 8 52 00 00 00 40 01 00 00
  10.129467 1  6B              Rx   d 8 52 00 00 00 40 01 00 00
  10.139477 1  6B              Rx   d 8 52 00 00 00 40 01 00 00
  10.149462 1  6B              Rx   d 8 52 00 00 00 40 01 00 00
  10.159428 1  6B              Rx   d 8 52 00 00 00 40 01 00 00
  10.169425 1  6B              Rx   d 8 52 00 00 00 40 01 00 00
  10.179412 1  6B              Rx   d 8 52 00 00 00 40 01 00 00
  10.189411 1  6B              Rx   d 8 52 00 00 00 40 01 00 00
  10.199403 1  6B              Rx   d 8 52 00 00 00 40 01 00 00
  10.209377 1  6B              Rx   d 8 52 00 00 00 40 01 00 00
  10.219373 1  6B              Rx   d 8 52 00 00 00 40 01 00 00
  10.229368 1  6B              Rx   d 8 52 00 00 00 40 01 00 00
  10.239348 1  6B              Rx   d 8 52 00 00 00 40 01 00 00
  10.249342 1  6B              Rx   d 8 52 00 00 00 40 01 00 00
  10.259335 1  6B              Rx   d 8 52 00 00 00 40 01 00 00
  10.269318 1  6B              Rx   d 8 52 00 00 00 40 01 00 00
  10.279312 1  6B              Rx   d 8 52 00 00 00 40 01 00 00
  10.289296 1  6B              Rx   d 8 52 00 00 00 40 01 00 00
  10.299294 1  6B              Rx   d 8 52 00 00 00 40 01 00 00
  10.309287 1  6B              Rx   d 8 52 00 00 00 40 01 00 00
  10.319277 1  6B              Rx   d 8 52 00 00 00 40 01 00 00
  10.329269 1  6B              Rx   d 8 52 00 00 00 40 01 00 00
  10.339260 1  6B              Rx   d 8 52 00 00 00 40 01 00 00
  10.349235 1  6B              Rx   d 8 52 00 00 00 40 01 00 00
  10.359228 1  6B              Rx   d 8 52 00 00 00 40 01 00 00
  10.369163 1  6B              Rx   d 8 52 00 00 00 40 01 00 00
  10.379209 1  6B              Rx   d 8 52 00 00 00 40 01 00 00
  10.389198 1  6B              Rx   d 8 52 00 00 00 40 01 00 00
  10.399132 1  6B              Rx   d 8 52 00 00 00 40 01 00 00
  10.409177 1  6B              Rx   d 8 52 00 00 00 40 01 00 00
  10.419174 1  6B              Rx   d 8 52 00 00 00 40 01 00 00
  10.429168 1  6B              Rx   d 8 52 00 00 00 40 01 00 00
  10.439151 1  6B              Rx   d 8 52 00 00 00 40 01 00 00
  10.449142 1  6B              Rx   d 8 52 00 00 00 40 01 00 00
  10.459077 1  6B              Rx   d 8 53 00 00 00 40 01 00 00
  10.469140 1  6B              Rx   d 8 53 00 00 00 40 01 00 00
  10.479125 1  6B              Rx   d 8 53 00 00 00 40 01 00 00
  10.489099 1  6B              Rx   d 8 53 00 00 00 40 01 00 00
  10.499107 1  6B              Rx   d 8 53 00 00 00 40 01 00 00
  10.509086 1  6B              Rx   d 8 53 00 00 00 40 01 00 00
  10.519070 1  6B              Rx   d 8 53 00 00 00 40 01 00 00
  10.529067 1  6B              Rx   d 8 53 00 00 00 40 01 00 00
  10.539054 1  6B              Rx   d 8 53 00 00 00 40 01 00 00
  10.548978 1  6B              Rx   d 8 53 00 00 00 40 01 00 00
  10.558978 1  6B              Rx   d 8 53 00 00 00 40 01 00 00
  10.569026 1  6B              Rx   d 8 53 00 00 00 40 01 00 00
  10.578948 1  6B              Rx   d 8 53 00 00 00 40 01 00 00
  10.589006 1  6B              Rx   d 8 53 00 00 00 40 01 00 00
  10.598993 1  6B              Rx   d 8 53 00 00 00 40 01 00 00
  10.608980 1  6B              Rx   d 8 53 00 00 00 40 01 00 00
  10.618980 1  6B              Rx   d 8 53 00 00 00 40 01 00 00
  10.628968 1  6B              Rx   d 8 53 00 00 00 40 01 00 00
  10.638949 1  6B              Rx   d 8 53 00 00 00 40 01 00 00
  10.648937 1  6B              Rx   d 8 53 00 00 00 40 01 00 00
  10.658926 1  6B              Rx   d 8 53 00 00 00 40 01 00 00
  10.668920 1  6B              Rx   d 8 53 00 00 00 40 01 00 00
  10.678905 1  6B              Rx   d 8 53 00 00 00 40 01 00 00
  10.688902 1  6B              Rx   d 8 53 00 00 00 40 01 00 00
  10.698833 1  6B              Rx   d 8 53 00 00 00 40 01 00 00
  10.708873 1  6B              Rx   d 8 53 00 00 00 40 01 00 00
  10.718867 1  6B              Rx   d 8 53 00 00 00 40 01 00 00
  10.728869 1  6B              Rx   d 8 53 00 00 00 40 01 00 00
  10.738842 1  6B              Rx   d 8 53 00 00 00 40 01 00 00
  10.748848 1  6B              Rx   d 8 53 00 00 00 40 01 00 00
  10.758839 1  6B              Rx   d 8 53 00 00 00 40 01 00 00
  10.768816 1  6B              Rx   d 8 53 00 00 00 40 01 00 00
  10.778803 1  6B              Rx   d 8 53 00 00 00 40 01 00 00
  10.788800 1  6B              Rx   d 8 53 00 00 00 40 01 00 00
  10.798794 1  6B              Rx   d 8 53 00 00 00 40 01 00 00
  10.808788 1  6B              Rx   d 8 53 00 00 00 40 01 00 00
  10.818772 1  6B              Rx   d 8 53 00 00 00 40 01 00 00
  10.828766 1  6B              Rx   d 8 53 00 00 00 40 01 00 00
  10.838740 1  6B              Rx   d 8 53 00 00 00 40 01 00 00
  10.848681 1  6B              Rx   d 8 53 00 00 00 40 01 00 00
  10.858728 1  6B              Rx   d 8 53 00 00 00 40 01 00 00
  10.868720 1  6B              Rx   d 8 53 00 00 00 40 01 00 00
  10.878712 1  6B              Rx   d 8 53 00 00 00 40 01 00 00
  10.888648 1  6B              Rx   d 8 53 00 00 00 40 01 00 00
  10.898636 1  6B              Rx   d 8 53 00 00 00 40 01 00 00
  10.908684 1  6B              Rx   d 8 53 00 00 00 40 01 00 00
  10.918606 1  6B              Rx   d 8 53 00 00 00 40 01 00 00
  10.928665 1  6B              Rx   d 8 53 00 00 00 40 01 00 00
  10.938666 1  6B              Rx   d 8 53 00 00 00 40 01 00 00
  10.948652 1  6B              Rx   d 8 53 00 00 00 40 01 00 00
  10.958632 1  6B              Rx   d 8 53 00 00 00 40 01 00 00
  10.968624 1  6B              Rx   d 8 53 00 00 00 40 01 00 00
  10.978620 1  6B              Rx   d 8 53 00 00 00 40 01 00 00
  10.988617 1  6B              Rx   d 8 53 00 00 00 3F 01 00 00
  10.998595 1  6B              Rx   d 8 53 00 00 00 3F 01 00 00
  11.008582 1  6B              Rx   d 8 53 00 00 00 3F 01 00 00
  11.018565 1  6B              Rx   d 8 53 00 00 00 3F 01 00 00
  11.028556 1  6B              Rx   d 8 53 00 00 00 3F 01 00 00
  11.038501 1  6B              Rx   d 8 53 00 00 00 3F 01 00 00
  11.048552 1  6B              Rx   d 8 53 00 00 00 3F 01 00 00
  11.058535 1  6B              Rx   d 8 53 00 00 00 3F 01 00 00
  11.068460 1  6B              Rx   d 8 53 00 00 00 3F 01 00 00
  11.078448 1  6B              Rx   d 8 53 00 00 00 3F 01 00 00
  11.088495 1  6B              Rx   d 8 53 00 00 00 3F 01 00 00
  11.098514 1  6B              Rx   d 8 53 00 00 00 3F 01 00 00
  11.108485 1  6B              Rx   d 8 53 00 00 00 3F 01 00 00
  11.118468 1  6B              Rx   d 8 53 00 00 00 3E 01 00 00
  11.128397 1  6B              Rx   d 8 53 00 00 00 3E 01 00 00
  11.138453 1  6B              Rx   d 8 53 00 00 00 3E 01 00 00
  11.148451 1  6B              Rx   d 8 53 00 00 00 3E 01 00 00
  11.158427 1  6B              Rx   d 8 53 00 00 00 3E 01 00 00
  11.168416 1  6B              Rx   d 8 53 00 00 00 3E 01 00 00
  11.178406 1  6B              Rx   d 8 53 00 00 00 3E 01 00 00
  11.188389 1  6B              Rx   d 8 53 00 00 00 3E 01 00 00
  11.198390 1  6B              Rx   d 8 53 00 00 00 3E 01 00 00
  11.208373 1  6B              Rx   d 8 53 00 00 00 3E 01 00 00
  11.218361 1  6B              Rx   d 8 53 00 00 00 3E 01 00 00
  11.228291 1  6B              Rx   d 8 53 00 00 00 3E 01 00 00
  11.238345 1  6B              Rx   d 8 53 00 00 00 3E 01 00 00
  11.248333 1  6B              Rx   d 8 53 00 00 00 3E 01 00 00
  11.258344 1  6B              Rx   d 8 53 00 00 00 3E 01 00 00
  11.268307 1  6B              Rx   d 8 53 00 00 00 3E 01 00 00
  11.278298 1  6B              Rx   d 8 53 00 00 00 3E 01 00 00
  11.288288 1  6B              Rx   d 8 53 00 00 00 3E 01 00 00
  11.298290 1  6B              Rx   d 8 53 00 00 00 3E 01 00 00
  11.308269 1  6B              Rx   d 8 53 00 00 00 3E 01 00 00
  11.318266 1  6B              Rx   d 8 53 00 00 00 3E 01 00 00
  11.328260 1  6B              Rx   d 8 53 00 00 00 3E 01 00 00
  11.338245 1  6B              Rx   d 8 53 00 00 00 3E 01 00 00
  11.348241 1  6B              Rx   d 8 53 00 00 00 3E 01 00 00
  11.358222 1  6B              Rx   d 8 53 00 00 00 3E 01 00 00
  11.368224 1  6B              Rx   d 8 53 00 00 00 3E 01 00 00
  11.378205 1  6B              Rx   d 8 53 00 00 00 3E 01 00 00
  11.388188 1  6B              Rx   d 8 53 00 00 00 3E 01 00 00
  11.398184 1  6B              Rx   d 8 53 00 00 00 3E 01 00 00
  11.408167 1  6B              Rx   d 8 53 00 00 00 3E 01 00 00
  11.418158 1  6B              Rx   d 8 53 00 00 00 3E 01 00 00
  11.428156 1  6B              Rx   d 8 53 00 00 00 3E 01 00 00
  11.438145 1  6B              Rx   d 8 53 00 00 00 3E 01 00 00
  11.448134 1  6B              Rx   d 8 53 00 00 00 3E 01 00 00
  11.458121 1  6B              Rx   d 8 53 00 00 00 3E 01 00 00
  11.468049 1  6B              Rx   d 8 53 00 00 00 3E 01 00 00
  11.478106 1  6B              Rx   d 8 53 00 00 00 3E 01 00 00
  11.488093 1  6B              Rx   d 8 53 00 00 00 3E 01 00 00
  11.498084 1  6B              Rx   d 8 53 00 00 00 3E 01 00 00
  11.508069 1  6B              Rx   d 8 53 00 00 00 3E 01 00 00
  11.518065 1  6B              Rx   d 8 53 00 00 00 3E 01 00 00
