   0.004454 1  80              Rx   d 6 FB FF 00 00 00 00
   0.014466 1  80              Rx   d 6 FB FF 00 00 00 00
   0.024454 1  80              Rx   d 6 FB FF 00 00 00 00
   0.034432 1  80              Rx   d 6 FB FF 00 00 00 00
   0.044417 1  80              Rx   d 6 FB FF 00 00 00 00
   0.054405 1  80              Rx   d 6 FB FF 00 00 00 00
   0.064397 1  80              Rx   d 6 FB FF 00 00 00 00
   0.074385 1  80              Rx   d 6 FB FF 00 00 00 00
   0.084381 1  80              Rx   d 6 FB FF 00 00 00 00
   0.094365 1  80              Rx   d 6 FB FF 00 00 00 00
   0.104501 1  80              Rx   d 6 FB FF 00 00 00 00
   0.114353 1  80              Rx   d 6 FB FF 00 00 00 00
   0.124340 1  80              Rx   d 6 FB FF 00 00 00 00
   0.134332 1  80              Rx   d 6 FB FF 00 00 00 00
   0.144328 1  80              Rx   d 6 FB FF 00 00 00 00
   0.154311 1  80              Rx   d 6 FB FF 00 00 00 00
   0.164309 1  80              Rx   d 6 FB FF 00 00 00 00
   0.174284 1  80              Rx   d 6 FB FF 00 00 00 00
   0.184281 1  80              Rx   d 6 FB FF 00 00 00 00
   0.194278 1  80              Rx   d 6 FB FF 00 00 00 00
   0.204263 1  80              Rx   d 6 FB FF 00 00 00 00
   0.214249 1  80              Rx   d 6 FB FF 00 00 00 00
   0.224246 1  80              Rx   d 6 FB FF 00 00 00 00
   0.234234 1  80              Rx   d 6 FB FF 00 00 00 00
   0.244221 1  80              Rx   d 6 FB FF 00 00 00 00
   0.254207 1  80              Rx   d 6 FB FF 00 00 00 00
   0.264200 1  80              Rx   d 6 FB FF 00 00 00 00
   0.274187 1  80              Rx   d 6 FB FF 00 00 00 00
   0.284177 1  80              Rx   d 6 FB FF 00 00 00 00
   0.294174 1  80              Rx   d 6 FB FF 00 00 00 00
   0.304157 1  80              Rx   d 6 FB FF 00 00 00 00
   0.314155 1  80              Rx   d 6 FB FF 00 00 00 00
   0.324145 1  80              Rx   d 6 FB FF 00 00 00 00
   0.334139 1  80              Rx   d 6 FB FF 00 00 00 00
   0.344123 1  80              Rx   d 6 FB FF 00 00 00 00
   0.354105 1  80              Rx   d 6 FB FF 00 00 00 00
   0.364101 1  80              Rx   d 6 FB FF 00 00 00 00
   0.374083 1  80              Rx   d 6 FB FF 00 00 00 00
   0.384084 1  80              Rx   d 6 FB FF 00 00 00 00
   0.394071 1  80              Rx   d 6 FB FF 00 00 00 00
   0.404061 1  80              Rx   d 6 FB FF 00 00 00 00
   0.414048 1  80              Rx   d 6 FB FF 00 00 00 00
   0.423982 1  80              Rx   d 6 FB FF 00 00 00 00
   0.434024 1  80              Rx   d 6 FB FF 00 00 00 00
   0.444025 1  80              Rx   d 6 FB FF 00 00 00 00
   0.454003 1  80              Rx   d 6 FB FF 00 00 00 00
   0.464003 1  80              Rx   d 6 FB FF 00 00 00 00
   0.473985 1  80              Rx   d 6 FB FF 00 00 00 00
   0.483977 1  80              Rx   d 6 FB FF 00 00 00 00
   0.493969 1  80              Rx   d 6 FB FF 00 00 00 00
   0.503950 1  80              Rx   d 6 FB FF 00 00 00 00
   0.513959 1  80              Rx   d 6 FB FF 00 00 00 00
   0.523941 1  80              Rx   d 6 FB FF 00 00 00 00
   0.533878 1  80              Rx   d 6 FB FF 00 00 00 00
   0.543915 1  80              Rx   d 6 FB FF 00 00 00 00
   0.553912 1  80              Rx   d 6 FB FF 00 00 00 00
   0.563846 1  80              Rx   d 6 FB FF 00 00 00 00
   0.573886 1  80              Rx   d 6 FB FF 00 00 00 00
   0.583873 1  80              Rx   d 6 FB FF 00 00 00 00
   0.593817 1  80              Rx   d 6 FB FF 00 00 00 00
   0.603856 1  80              Rx   d 6 FB FF 00 00 00 00
   0.613790 1  80              Rx   d 6 FB FF 00 00 00 00
   0.623836 1  80              Rx   d 6 FB FF 00 00 00 00
   0.633836 1  80              Rx   d 6 FB FF 00 00 00 00
   0.643827 1  80              Rx   d 6 FB FF 00 00 00 00
   0.653810 1  80              Rx   d 6 FB FF 00 00 00 00
   0.663795 1  80              Rx   d 6 FB FF 00 00 00 00
   0.673786 1  80              Rx   d 6 FB FF 00 00 00 00
   0.683771 1  80              Rx   d 6 FB FF 00 00 00 00
   0.693767 1  80              Rx   d 6 FB FF 00 00 00 00
   0.703769 1  80              Rx   d 6 FB FF 00 00 00 00
   0.713743 1  80              Rx   d 6 FB FF 00 00 00 00
   0.723732 1  80              Rx   d 6 FB FF 00 00 00 00
   0.733731 1  80              Rx   d 6 FB FF 00 00 00 00
   0.743712 1  80              Rx   d 6 FB FF 00 00 00 00
   0.753706 1  80              Rx   d 6 FB FF 00 00 00 00
   0.763690 1  80              Rx   d 6 FB FF 00 00 00 00
   0.773682 1  80              Rx   d 6 FB FF 00 00 00 00
   0.783675 1  80              Rx   d 6 FB FF 00 00 00 00
   0.793674 1  80              Rx   d 6 FB FF 00 00 00 00
   0.803657 1  80              Rx   d 6 FB FF 00 00 00 00
   0.813651 1  80              Rx   d 6 FB FF 00 00 00 00
   0.823637 1  80              Rx   d 6 FB FF 00 00 00 00
   0.833622 1  80              Rx   d 6 FB FF 00 00 00 00
   0.843618 1  80              Rx   d 6 FB FF 00 00 00 00
   0.853605 1  80              Rx   d 6 FB FF 00 00 00 00
   0.863598 1  80              Rx   d 6 FB FF 00 00 00 00
   0.873590 1  80              Rx   d 6 FB FF 00 00 00 00
   0.883579 1  80              Rx   d 6 FB FF 00 00 00 00
   0.893572 1  80              Rx   d 6 FB FF 00 00 00 00
   0.903559 1  80              Rx   d 6 FB FF 00 00 00 00
   0.913544 1  80              Rx   d 6 FB FF 00 00 00 00
   0.923480 1  80              Rx   d 6 FB FF 00 00 00 00
   0.933531 1  80              Rx   d 6 FB FF 00 00 00 00
   0.943513 1  80              Rx   d 6 FB FF 00 00 00 00
   0.953455 1  80              Rx   d 6 FB FF 00 00 00 00
   0.963458 1  80              Rx   d 6 FB FF 00 00 00 00
   0.973486 1  80              Rx   d 6 FB FF 00 00 00 00
   0.983470 1  80              Rx   d 6 FB FF 00 00 00 00
   0.993474 1  80              Rx   d 6 FB FF 00 00 00 00
   1.003468 1  80              Rx   d 6 FB FF 00 00 00 00
   1.013444 1  80              Rx   d 6 FB FF 00 00 00 00
   1.023441 1  80              Rx   d 6 FB FF 00 00 00 00
   1.033435 1  80              Rx   d 6 FB FF 00 00 00 00
   1.043413 1  80              Rx   d 6 FB FF 00 00 00 00
   1.053407 1  80              Rx   d 6 FB FF 00 00 00 00
   1.063393 1  80              Rx   d 6 FB FF 00 00 00 00
   1.073391 1  80              Rx   d 6 FB FF 00 00 00 00
   1.083369 1  80              Rx   d 6 FB FF 00 00 00 00
   1.093369 1  80              Rx   d 6 FB FF 00 00 00 00
   1.103359 1  80              Rx   d 6 FB FF 00 00 00 00
   1.113348 1  80              Rx   d 6 FB FF 00 00 00 00
   1.123339 1  80              Rx   d 6 FB FF 00 00 00 00
   1.133271 1  80              Rx   d 6 FB FF 00 00 00 00
   1.143258 1  80              Rx   d 6 FB FF 00 00 00 00
   1.153324 1  80              Rx   d 6 FB FF 00 00 00 00
   1.163250 1  80              Rx   d 6 FB FF 00 00 00 00
   1.173280 1  80              Rx   d 6 FB FF 00 00 00 00
   1.183275 1  80              Rx   d 6 FB FF 00 00 00 00
   1.193203 1  80              Rx   d 6 FB FF 00 00 00 00
   1.203249 1  80              Rx   d 6 FB FF 00 00 00 00
   1.213241 1  80              Rx   d 6 FB FF 00 00 00 00
   1.223176 1  80              Rx   d 6 FB FF 00 00 00 00
   1.233226 1  80              Rx   d 6 FB FF 00 00 00 00
   1.243210 1  80              Rx   d 6 FB FF 00 00 00 00
   1.253151 1  80              Rx   d 6 FB FF 00 00 00 00
   1.263145 1  80              Rx   d 6 FB FF 00 00 00 00
   1.273124 1  80              Rx   d 6 FB FF 00 00 00 00
   1.283172 1  80              Rx   d 6 FB FF 00 00 00 00
   1.293174 1  80              Rx   d 6 FB FF 00 00 00 00
   1.303155 1  80              Rx   d 6 FB FF 00 00 00 00
   1.313137 1  80              Rx   d 6 FB FF 00 00 00 00
   1.323147 1  80              Rx   d 6 FB FF 00 00 00 00
   1.333081 1  80              Rx   d 6 FB FF 00 00 00 00
   1.343120 1  80              Rx   d 6 FB FF 00 00 00 00
   1.353115 1  80              Rx   d 6 FB FF 00 00 00 00
   1.363088 1  80              Rx   d 6 FB FF 00 00 00 00
   1.373093 1  80              Rx   d 6 FB FF 00 00 00 00
   1.383079 1  80              Rx   d 6 FB FF 00 00 00 00
   1.393057 1  80              Rx   d 6 FB FF 00 00 00 00
   1.403050 1  80              Rx   d 6 FB FF 00 00 00 00
   1.412989 1  80              Rx   d 6 FB FF 00 00 00 00
   1.423029 1  80              Rx   d 6 FB FF 00 00 00 00
   1.433022 1  80              Rx   d 6 FB FF 00 00 00 00
   1.443007 1  80              Rx   d 6 FB FF 00 00 00 00
   1.452947 1  80              Rx   d 6 FB FF 00 00 00 00
   1.462952 1  80              Rx   d 6 FB FF 00 00 00 00
   1.472983 1  80              Rx   d 6 FB FF 00 00 00 00
   1.482969 1  80              Rx   d 6 FB FF 00 00 00 00
   1.492968 1  80              Rx   d 6 FB FF 00 00 00 00
   1.502949 1  80              Rx   d 6 FB FF 00 00 00 00
   1.512939 1  80              Rx   d 6 FB FF 00 00 00 00
   1.522928 1  80              Rx   d 6 FB FF 00 00 00 00
   1.532925 1  80              Rx   d 6 FB FF 00 00 00 00
   1.542911 1  80              Rx   d 6 FB FF 00 00 00 00
   1.552902 1  80              Rx   d 6 FB FF 00 00 00 00
   1.562895 1  80              Rx   d 6 FB FF 00 00 00 00
   1.572880 1  80              Rx   d 6 FB FF 00 00 00 00
   1.582892 1  80              Rx   d 6 FB FF 00 00 00 00
   1.592867 1  80              Rx   d 6 FB FF 00 00 00 00
   1.602850 1  80              Rx   d 6 FB FF 00 00 00 00
   1.612841 1  80              Rx   d 6 FB FF 00 00 00 00
   1.622826 1  80              Rx   d 6 FB FF 00 00 00 00
   1.632818 1  80              Rx   d 6 FB FF 00 00 00 00
   1.642816 1  80              Rx   d 6 FB FF 00 00 00 00
   1.652803 1  80              Rx   d 6 FB FF 00 00 00 00
   1.662787 1  80              Rx   d 6 FB FF 00 00 00 00
   1.672790 1  80              Rx   d 6 FB FF 00 00 00 00
   1.682767 1  80              Rx   d 6 FB FF 00 00 00 00
   1.692764 1  80              Rx   d 6 FB FF 00 00 00 00
   1.702758 1  80              Rx   d 6 FB FF 00 00 00 00
   1.712747 1  80              Rx   d 6 FB FF 00 00 00 00
   1.722730 1  80              Rx   d 6 FB FF 00 00 00 00
   1.732718 1  80              Rx   d 6 FB FF 00 00 00 00
   1.742710 1  80              Rx   d 6 FB FF 00 00 00 00
   1.752716 1  80              Rx   d 6 FB FF 00 00 00 00
   1.762698 1  80              Rx   d 6 FB FF 00 00 00 00
   1.772684 1  80              Rx   d 6 FB FF 00 00 00 00
   1.782675 1  80              Rx   d 6 FB FF 00 00 00 00
   1.792659 1  80              Rx   d 6 FB FF 00 00 00 00
   1.802647 1  80              Rx   d 6 FB FF 00 00 00 00
   1.812640 1  80              Rx   d 6 FB FF 00 00 00 00
   1.822631 1  80              Rx   d 6 FB FF 00 00 00 00
   1.832564 1  80              Rx   d 6 FB FF 00 00 00 00
   1.842607 1  80              Rx   d 6 FB FF 00 00 00 00
   1.852609 1  80              Rx   d 6 FB FF 00 00 00 00
   1.862586 1  80              Rx   d 6 FB FF 00 00 00 00
   1.872589 1  80              Rx   d 6 FB FF 00 00 00 00
   1.882570 1  80              Rx   d 6 FB FF 00 00 00 00
   1.892557 1  80              Rx   d 6 FB FF 00 00 00 00
   1.902549 1  80              Rx   d 6 FB FF 00 00 00 00
   1.912496 1  80              Rx   d 6 FB FF 00 00 00 00
   1.922539 1  80              Rx   d 6 FB FF 00 00 00 00
   1.932516 1  80              Rx   d 6 FB FF 00 00 00 00
   1.942451 1  80              Rx   d 6 FB FF 00 00 00 00
   1.952517 1  80              Rx   d 6 FB FF 00 00 00 00
   1.962499 1  80              Rx   d 6 FB FF 00 00 00 00
   1.972488 1  80              Rx   d 6 FB FF 00 00 00 00
   1.982468 1  80              Rx   d 6 FB FF 00 00 00 00
   1.992457 1  80              Rx   d 6 FB FF 00 00 00 00
   2.002391 1  80              Rx   d 6 FB FF 00 00 00 00
   2.012439 1  80              Rx   d 6 FB FF 00 00 00 00
   2.022429 1  80              Rx   d 6 FB FF 00 00 00 00
   2.032365 1  80              Rx   d 6 FB FF 00 00 00 00
   2.042409 1  80              Rx   d 6 FB FF 00 00 00 00
   2.052400 1  80              Rx   d 6 FB FF 00 00 00 00
   2.062385 1  80              Rx   d 6 FB FF 00 00 00 00
   2.072376 1  80              Rx   d 6 FB FF 00 00 00 00
   2.082377 1  80              Rx   d 6 FB FF 00 00 00 00
   2.092365 1  80              Rx   d 6 FB FF 00 00 00 00
   2.102347 1  80              Rx   d 6 FB FF 00 00 00 00
   2.112287 1  80              Rx   d 6 FB FF 00 00 00 00
   2.122329 1  80              Rx   d 6 FB FF 00 00 00 00
   2.132327 1  80              Rx   d 6 FB FF 00 00 00 00
   2.142318 1  80              Rx   d 6 FB FF 00 00 00 00
   2.152295 1  80              Rx   d 6 FB FF 00 00 00 00
   2.162296 1  80              Rx   d 6 FB FF 00 00 00 00
   2.172274 1  80              Rx   d 6 FB FF 00 00 00 00
   2.182270 1  80              Rx   d 6 FB FF 00 00 00 00
   2.192264 1  80              Rx   d 6 FB FF 00 00 00 00
   2.202254 1  80              Rx   d 6 FB FF 00 00 00 00
   2.212238 1  80              Rx   d 6 FB FF 00 00 00 00
   2.222169 1  80              Rx   d 6 FB FF 00 00 00 00
   2.232217 1  80              Rx   d 6 FB FF 00 00 00 00
   2.242207 1  80              Rx   d 6 FB FF 00 00 00 00
   2.252348 1  80              Rx   d 6 FB FF 00 00 00 00
   2.262184 1  80              Rx   d 6 FB FF 00 00 00 00
   2.272183 1  80              Rx   d 6 FB FF 00 00 00 00
   2.282172 1  80              Rx   d 6 FB FF 00 00 00 00
   2.292154 1  80              Rx   d 6 FB FF 00 00 00 00
   2.302146 1  80              Rx   d 6 FB FF 00 00 00 00
   2.312149 1  80              Rx   d 6 FB FF 00 00 00 00
   2.322133 1  80              Rx   d 6 FB FF 00 00 00 00
   2.332120 1  80              Rx   d 6 FB FF 00 00 00 00
   2.342103 1  80              Rx   d 6 FB FF 00 00 00 00
   2.352105 1  80              Rx   d 6 FB FF 00 00 00 00
   2.362095 1  80              Rx   d 6 FB FF 00 00 00 00
   2.372086 1  80              Rx   d 6 FB FF 00 00 00 00
   2.382066 1  80              Rx   d 6 FB FF 00 00 00 00
   2.392067 1  80              Rx   d 6 FB FF 00 00 00 00
   2.402053 1  80              Rx   d 6 FB FF 00 00 00 00
   2.411982 1  80              Rx   d 6 FB FF 00 00 00 00
   2.422026 1  80              Rx   d 6 FB FF 00 00 00 00
   2.432022 1  80              Rx   d 6 FB FF 00 00 00 00
   2.441956 1  80              Rx   d 6 FB FF 00 00 00 00
   2.451998 1  80              Rx   d 6 FB FF 00 00 00 00
   2.462004 1  80              Rx   d 6 FB FF 00 00 00 00
   2.471982 1  80              Rx   d 6 FB FF 00 00 00 00
   2.481965 1  80              Rx   d 6 FB FF 00 00 00 00
   2.491954 1  80              Rx   d 6 FB FF 00 00 00 00
   2.501949 1  80              Rx   d 6 FB FF 00 00 00 00
   2.511937 1  80              Rx   d 6 FB FF 00 00 00 00
   2.521868 1  80              Rx   d 6 FB FF 00 00 00 00
   2.531923 1  80              Rx   d 6 FB FF 00 00 00 00
   2.541921 1  80              Rx   d 6 FB FF 00 00 00 00
   2.551896 1  80              Rx   d 6 FB FF 00 00 00 00
   2.561884 1  80              Rx   d 6 FB FF 00 00 00 00
   2.571884 1  80              Rx   d 6 FB FF 00 00 00 00
   2.581863 1  80              Rx   d 6 FB FF 00 00 00 00
   2.591868 1  80              Rx   d 6 FB FF 00 00 00 00
   2.601847 1  80              Rx   d 6 FB FF 00 00 00 00
   2.611833 1  80              Rx   d 6 FB FF 00 00 00 00
   2.621826 1  80              Rx   d 6 FB FF 00 00 00 00
   2.631820 1  80              Rx   d 6 FB FF 00 00 00 00
   2.641810 1  80              Rx   d 6 FB FF 00 00 00 00
   2.651793 1  80              Rx   d 6 FB FF 00 00 00 00
   2.661784 1  80              Rx   d 6 FB FF 00 00 00 00
   2.671735 1  80              Rx   d 6 FB FF 00 00 00 00
   2.681763 1  80              Rx   d 6 FB FF 00 00 00 00
   2.691753 1  80              Rx   d 6 FB FF 00 00 00 00
   2.701697 1  80              Rx   d 6 FB FF 00 00 00 00
   2.711732 1  80              Rx   d 6 FB FF 00 00 00 00
   2.721731 1  80              Rx   d 6 FB FF 00 00 00 00
   2.731718 1  80              Rx   d 6 FB FF 00 00 00 00
   2.741702 1  80              Rx   d 6 FB FF 00 00 00 00
   2.751703 1  80              Rx   d 6 FB FF 00 00 00 00
   2.761682 1  80              Rx   d 6 FB FF 00 00 00 00
   2.771688 1  80              Rx   d 6 FB FF 00 00 00 00
   2.781669 1  80              Rx   d 6 FB FF 00 00 00 00
   2.791661 1  80              Rx   d 6 FB FF 00 00 00 00
   2.801658 1  80              Rx   d 6 FB FF 00 00 00 00
   2.811636 1  80              Rx   d 6 FB FF 00 00 00 00
   2.821636 1  80              Rx   d 6 FB FF 00 00 00 00
   2.831616 1  80              Rx   d 6 FB FF 00 00 00 00
   2.841612 1  80              Rx   d 6 FB FF 00 00 00 00
   2.851599 1  80              Rx   d 6 FB FF 00 00 00 00
   2.861540 1  80              Rx   d 6 FB FF 00 00 00 00
   2.871575 1  80              Rx   d 6 FB FF 00 00 00 00
   2.881570 1  80              Rx   d 6 FB FF 00 00 00 00
   2.891552 1  80              Rx   d 6 FB FF 00 00 00 00
   2.901549 1  80              Rx   d 6 FB FF 00 00 00 00
   2.911547 1  80              Rx   d 6 FB FF 00 00 00 00
   2.921527 1  80              Rx   d 6 FB FF 00 00 00 00
   2.931512 1  80              Rx   d 6 FB FF 00 00 00 00
   2.941512 1  80              Rx   d 6 FB FF 00 00 00 00
   2.951500 1  80              Rx   d 6 FB FF 00 00 00 00
   2.961481 1  80              Rx   d 6 FB FF 00 00 00 00
   2.971478 1  80              Rx   d 6 FB FF 00 00 00 00
   2.981466 1  80              Rx   d 6 FB FF 00 00 00 00
   2.991468 1  80              Rx   d 6 FB FF 00 00 00 00
   3.001447 1  80              Rx   d 6 FB FF 00 00 00 00
   3.011429 1  80              Rx   d 6 FB FF 00 00 00 00
   3.021424 1  80              Rx   d 6 FB FF 00 00 00 00
   3.031413 1  80              Rx   d 6 FB FF 00 00 00 00
   3.041405 1  80              Rx   d 6 FB FF 00 00 00 00
   3.051397 1  80              Rx   d 6 FB FF 00 00 00 00
   3.061384 1  80              Rx   d 6 FB FF 00 00 00 00
   3.071394 1  80              Rx   d 6 FB FF 00 00 00 00
   3.081306 1  80              Rx   d 6 FB FF 00 00 00 00
   3.091350 1  80              Rx   d 6 FB FF 00 00 00 00
   3.101351 1  80              Rx   d 6 FB FF 00 00 00 00
   3.111358 1  80              Rx   d 6 FB FF 00 00 00 00
   3.121320 1  80              Rx   d 6 FB FF 00 00 00 00
   3.131320 1  80              Rx   d 6 FB FF 00 00 00 00
   3.141314 1  80              Rx   d 6 FB FF 00 00 00 00
   3.151295 1  80              Rx   d 6 FB FF 00 00 00 00
   3.161292 1  80              Rx   d 6 FB FF 00 00 00 00
   3.171281 1  80              Rx   d 6 FB FF 00 00 00 00
   3.181265 1  80              Rx   d 6 FB FF 00 00 00 00
   3.191257 1  80              Rx   d 6 FB FF 00 00 00 00
   3.201240 1  80              Rx   d 6 FB FF 00 00 00 00
   3.211228 1  80              Rx   d 6 FB FF 00 00 00 00
   3.221219 1  80              Rx   d 6 FB FF 00 00 00 00
   3.231216 1  80              Rx   d 6 FB FF 00 00 00 00
   3.241197 1  80              Rx   d 6 FB FF 00 00 00 00
   3.251193 1  80              Rx   d 6 FB FF 00 00 00 00
   3.261184 1  80              Rx   d 6 FB FF 00 00 00 00
   3.271125 1  80              Rx   d 6 FB FF 00 00 00 00
   3.281160 1  80              Rx   d 6 FB FF 00 00 00 00
   3.291147 1  80              Rx   d 6 FB FF 00 00 00 00
   3.301140 1  80              Rx   d 6 FB FF 00 00 00 00
   3.311130 1  80              Rx   d 6 FB FF 00 00 00 00
   3.321118 1  80              Rx   d 6 FB FF 00 00 00 00
   3.331113 1  80              Rx   d 6 FB FF 00 00 00 00
   3.341121 1  80              Rx   d 6 FB FF 00 00 00 00
   3.351090 1  80              Rx   d 6 FB FF 00 00 00 00
   3.361085 1  80              Rx   d 6 FB FF 00 00 00 00
   3.371078 1  80              Rx   d 6 FB FF 00 00 00 00
   3.381066 1  80              Rx   d 6 FB FF 00 00 00 00
   3.391048 1  80              Rx   d 6 FB FF 00 00 00 00
   3.401052 1  80              Rx   d 6 FB FF 00 00 00 00
   3.411029 1  80              Rx   d 6 FB FF 00 00 00 00
   3.421020 1  80              Rx   d 6 FB FF 00 00 00 00
   3.431017 1  80              Rx   d 6 FB FF 00 00 00 00
   3.441009 1  80              Rx   d 6 FB FF 00 00 00 00
   3.450999 1  80              Rx   d 6 FB FF 00 00 00 00
   3.461000 1  80              Rx   d 6 FB FF 00 00 00 00
   3.471110 1  80              Rx   d 6 FB FF 00 00 00 00
   3.480961 1  80              Rx   d 6 FB FF 00 00 00 00
   3.490962 1  80              Rx   d 6 FB FF 00 00 00 00
   3.500942 1  80              Rx   d 6 FB FF 00 00 00 00
   3.510946 1  80              Rx   d 6 FB FF 00 00 00 00
   3.520918 1  80              Rx   d 6 FB FF 00 00 00 00
   3.530919 1  80              Rx   d 6 FB FF 00 00 00 00
   3.540906 1  80              Rx   d 6 FB FF 00 00 00 00
   3.550893 1  80              Rx   d 6 FB FF 00 00 00 00
   3.560888 1  80              Rx   d 6 FB FF 00 00 00 00
   3.570871 1  80              Rx   d 6 FB FF 00 00 00 00
   3.580865 1  80              Rx   d 6 FB FF 00 00 00 00
   3.590856 1  80              Rx   d 6 FB FF 00 00 00 00
   3.600835 1  80              Rx   d 6 FB FF 00 00 00 00
   3.610831 1  80              Rx   d 6 FB FF 00 00 00 00
   3.620823 1  80              Rx   d 6 FB FF 00 00 00 00
   3.630826 1  80              Rx   d 6 FB FF 00 00 00 00
   3.640755 1  80              Rx   d 6 FB FF 00 00 00 00
   3.650745 1  80              Rx   d 6 FB FF 00 00 00 00
   3.660784 1  80              Rx   d 6 FB FF 00 00 00 00
   3.670771 1  80              Rx   d 6 FB FF 00 00 00 00
   3.680757 1  80              Rx   d 6 FB FF 00 00 00 00
   3.690754 1  80              Rx   d 6 FB FF 00 00 00 00
   3.700746 1  80              Rx   d 6 FB FF 00 00 00 00
   3.710732 1  80              Rx   d 6 FB FF 00 00 00 00
   3.720727 1  80              Rx   d 6 FB FF 00 00 00 00
   3.730718 1  80              Rx   d 6 FB FF 00 00 00 00
   3.740697 1  80              Rx   d 6 FB FF 00 00 00 00
   3.750696 1  80              Rx   d 6 FB FF 00 00 00 00
   3.760627 1  80              Rx   d 6 FB FF 00 00 00 00
   3.770666 1  80              Rx   d 6 FB FF 00 00 00 00
   3.780656 1  80              Rx   d 6 FB FF 00 00 00 00
   3.790661 1  80              Rx   d 6 FB FF 00 00 00 00
   3.800642 1  80              Rx   d 6 FB FF 00 00 00 00
   3.810650 1  80              Rx   d 6 FB FF 00 00 00 00
   3.820622 1  80              Rx   d 6 FB FF 00 00 00 00
   3.830616 1  80              Rx   d 6 FB FF 00 00 00 00
   3.840603 1  80              Rx   d 6 FB FF 00 00 00 00
   3.850590 1  80              Rx   d 6 FB FF 00 00 00 00
   3.860577 1  80              Rx   d 6 FB FF 00 00 00 00
   3.870566 1  80              Rx   d 6 FB FF 00 00 00 00
   3.880560 1  80              Rx   d 6 FB FF 00 00 00 00
   3.890557 1  80              Rx   d 6 FB FF 00 00 00 00
   3.900548 1  80              Rx   d 6 FB FF 00 00 00 00
   3.910536 1  80              Rx   d 6 FB FF 00 00 00 00
   3.920516 1  80              Rx   d 6 FB FF 00 00 00 00
   3.930525 1  80              Rx   d 6 FB FF 00 00 00 00
   3.940512 1  80              Rx   d 6 FB FF 00 00 00 00
   3.950492 1  80              Rx   d 6 FB FF 00 00 00 00
   3.960477 1  80              Rx   d 6 FB FF 00 00 00 00
   3.970466 1  80              Rx   d 6 FB FF 00 00 00 00
   3.980457 1  80              Rx   d 6 FB FF 00 00 00 00
   3.990463 1  80              Rx   d 6 FB FF 00 00 00 00
   4.000435 1  80              Rx   d 6 FB FF 00 00 00 00
   4.010429 1  80              Rx   d 6 FB FF 00 00 00 00
   4.020427 1  80              Rx   d 6 FB FF 00 00 00 00
   4.030414 1  80              Rx   d 6 FB FF 00 00 00 00
   4.040398 1  80              Rx   d 6 FB FF 00 00 00 00
   4.050330 1  80              Rx   d 6 FB FF 00 00 00 00
   4.060385 1  80              Rx   d 6 FB FF 00 00 00 00
   4.070372 1  80              Rx   d 6 FB FF 00 00 00 00
   4.080355 1  80              Rx   d 6 FB FF 00 00 00 00
   4.090350 1  80              Rx   d 6 FB FF 00 00 00 00
   4.100337 1  80              Rx   d 6 FB FF 00 00 00 00
   4.110336 1  80              Rx   d 6 FB FF 00 00 00 00
   4.120326 1  80              Rx   d 6 FB FF 00 00 00 00
   4.130310 1  80              Rx   d 6 FB FF 00 00 00 00
   4.140299 1  80              Rx   d 6 FB FF 00 00 00 00
   4.150286 1  80              Rx   d 6 FB FF 00 00 00 00
   4.160306 1  80              Rx   d 6 FB FF 00 00 00 00
   4.170277 1  80              Rx   d 6 FB FF 00 00 00 00
   4.180254 1  80              Rx   d 6 FB FF 00 00 00 00
   4.190244 1  80              Rx   d 6 FB FF 00 00 00 00
   4.200179 1  80              Rx   d 6 FB FF 00 00 00 00
   4.210234 1  80              Rx   d 6 FB FF 00 00 00 00
   4.220220 1  80              Rx   d 6 FB FF 00 00 00 00
   4.230217 1  80              Rx   d 6 FB FF 00 00 00 00
   4.240211 1  80              Rx   d 6 FB FF 00 00 00 00
   4.250197 1  80              Rx   d 6 FB FF 00 00 00 00
   4.260185 1  80              Rx   d 6 FB FF 00 00 00 00
   4.270171 1  80              Rx   d 6 FB FF 00 00 00 00
   4.280166 1  80              Rx   d 6 FB FF 00 00 00 00
   4.290158 1  80              Rx   d 6 FB FF 00 00 00 00
   4.300136 1  80              Rx   d 6 FB FF 00 00 00 00
   4.310129 1  80              Rx   d 6 FB FF 00 00 00 00
   4.320123 1  80              Rx   d 6 FB FF 00 00 00 00
   4.330063 1  80              Rx   d 6 FB FF 00 00 00 00
   4.340093 1  80              Rx   d 6 FB FF 00 00 00 00
   4.350089 1  80              Rx   d 6 FB FF 00 00 00 00
   4.360082 1  80              Rx   d 6 FB FF 00 00 00 00
   4.370064 1  80              Rx   d 6 FB FF 00 00 00 00
   4.380057 1  80              Rx   d 6 FB FF 00 00 00 00
   4.389991 1  80              Rx   d 6 FB FF 00 00 00 00
   4.400036 1  80              Rx   d 6 FB FF 00 00 00 00
   4.410023 1  80              Rx   d 6 FB FF 00 00 00 00
   4.420015 1  80              Rx   d 6 FB FF 00 00 00 00
   4.430017 1  80              Rx   d 6 FB FF 00 00 00 00
   4.440004 1  80              Rx   d 6 FB FF 00 00 00 00
   4.449987 1  80              Rx   d 6 FB FF 00 00 00 00
   4.460003 1  80              Rx   d 6 FB FF 00 00 00 00
   4.469967 1  80              Rx   d 6 FB FF 00 00 00 00
   4.479959 1  80              Rx   d 6 FB FF 00 00 00 00
   4.489892 1  80              Rx   d 6 FB FF 00 00 00 00
   4.499935 1  80              Rx   d 6 FB FF 00 00 00 00
   4.509926 1  80              Rx   d 6 FB FF 00 00 00 00
   4.519916 1  80              Rx   d 6 FB FF 00 00 00 00
   4.529922 1  80              Rx   d 6 FB FF 00 00 00 00
   4.539904 1  80              Rx   d 6 FB FF 00 00 00 00
   4.549893 1  80              Rx   d 6 FB FF 00 00 00 00
   4.559881 1  80              Rx   d 6 FB FF 00 00 00 00
   4.569873 1  80              Rx   d 6 FB FF 00 00 00 00
   4.579858 1  80              Rx   d 6 FB FF 00 00 00 00
   4.589844 1  80              Rx   d 6 FB FF 00 00 00 00
   4.599840 1  80              Rx   d 6 FB FF 00 00 00 00
   4.609770 1  80              Rx   d 6 FB FF 00 00 00 00
   4.619815 1  80              Rx   d 6 FB FF 00 00 00 00
   4.629807 1  80              Rx   d 6 FB FF 00 00 00 00
   4.639797 1  80              Rx   d 6 FB FF 00 00 00 00
   4.649801 1  80              Rx   d 6 FB FF 00 00 00 00
   4.659784 1  80              Rx   d 6 FB FF 00 00 00 00
   4.669767 1  80              Rx   d 6 FB FF 00 00 00 00
   4.679760 1  80              Rx   d 6 FB FF 00 00 00 00
   4.689749 1  80              Rx   d 6 FB FF 00 00 00 00
   4.699749 1  80              Rx   d 6 FB FF 00 00 00 00
   4.709732 1  80              Rx   d 6 FB FF 00 00 00 00
   4.719724 1  80              Rx   d 6 FB FF 00 00 00 00
   4.729714 1  80              Rx   d 6 FB FF 00 00 00 00
   4.739697 1  80              Rx   d 6 FB FF 00 00 00 00
   4.749694 1  80              Rx   d 6 FB FF 00 00 00 00
   4.759618 1  80              Rx   d 6 FB FF 00 00 00 00
   4.769667 1  80              Rx   d 6 FB FF 00 00 00 00
   4.779651 1  80              Rx   d 6 FB FF 00 00 00 00
   4.789649 1  80              Rx   d 6 FB FF 00 00 00 00
   4.799644 1  80              Rx   d 6 FB FF 00 00 00 00
   4.809623 1  80              Rx   d 6 FB FF 00 00 00 00
   4.819632 1  80              Rx   d 6 FB FF 00 00 00 00
   4.829613 1  80              Rx   d 6 FB FF 00 00 00 00
   4.839598 1  80              Rx   d 6 FB FF 00 00 00 00
   4.849587 1  80              Rx   d 6 FB FF 00 00 00 00
   4.859582 1  80              Rx   d 6 FB FF 00 00 00 00
   4.869564 1  80              Rx   d 6 FB FF 00 00 00 00
   4.879573 1  80              Rx   d 6 FB FF 00 00 00 00
   4.889493 1  80              Rx   d 6 FB FF 00 00 00 00
   4.899534 1  80              Rx   d 6 FB FF 00 00 00 00
   4.909545 1  80              Rx   d 6 FB FF 00 00 00 00
   4.919514 1  80              Rx   d 6 FB FF 00 00 00 00
   4.929523 1  80              Rx   d 6 FB FF 00 00 00 00
   4.939451 1  80              Rx   d 6 FB FF 00 00 00 00
   4.949488 1  80              Rx   d 6 FB FF 00 00 00 00
   4.959481 1  80              Rx   d 6 FB FF 00 00 00 00
   4.969407 1  80              Rx   d 6 FB FF 00 00 00 00
   4.979458 1  80              Rx   d 6 FB FF 00 00 00 00
   4.989446 1  80              Rx   d 6 FB FF 00 00 00 00
   4.999435 1  80              Rx   d 6 FB FF 00 00 00 00
   5.009432 1  80              Rx   d 6 FB FF 00 00 00 00
   5.019416 1  80              Rx   d 6 FB FF 00 00 00 00
   5.029408 1  80              Rx   d 6 FB FF 00 00 00 00
   5.039399 1  80              Rx   d 6 FB FF 00 00 00 00
   5.049392 1  80              Rx   d 6 FB FF 00 00 00 00
   5.059387 1  80              Rx   d 6 FB FF 00 00 00 00
   5.069381 1  80              Rx   d 6 FB FF 00 00 00 00
   5.079355 1  80              Rx   d 6 FB FF 00 00 00 00
   5.089341 1  80              Rx   d 6 FB FF 00 00 00 00
   5.099331 1  80              Rx   d 6 FB FF 00 00 00 00
   5.109325 1  80              Rx   d 6 FB FF 00 00 00 00
   5.119268 1  80              Rx   d 6 FB FF 00 00 00 00
   5.129300 1  80              Rx   d 6 FB FF 00 00 00 00
   5.139293 1  80              Rx   d 6 FB FF 00 00 00 00
   5.149299 1  80              Rx   d 6 FB FF 00 00 00 00
   5.159279 1  80              Rx   d 6 FB FF 00 00 00 00
   5.169269 1  80              Rx   d 6 FB FF 00 00 00 00
   5.179256 1  80              Rx   d 6 FB FF 00 00 00 00
   5.189245 1  80              Rx   d 6 FB FF 00 00 00 00
   5.199237 1  80              Rx   d 6 FB FF 00 00 00 00
   5.209230 1  80              Rx   d 6 FB FF 00 00 00 00
   5.219219 1  80              Rx   d 6 FB FF 00 00 00 00
   5.229207 1  80              Rx   d 6 FB FF 00 00 00 00
   5.239204 1  80              Rx   d 6 FB FF 00 00 00 00
   5.249183 1  80              Rx   d 6 FB FF 00 00 00 00
   5.259173 1  80              Rx   d 6 FB FF 00 00 00 00
   5.269163 1  80              Rx   d 6 FB FF 00 00 00 00
   5.279157 1  80              Rx   d 6 FB FF 00 00 00 00
   5.289143 1  80              Rx   d 6 FB FF 00 00 00 00
   5.299133 1  80              Rx   d 6 FB FF 00 00 00 00
   5.309124 1  80              Rx   d 6 FB FF 00 00 00 00
   5.319061 1  80              Rx   d 6 FB FF 00 00 00 00
   5.329101 1  80              Rx   d 6 FB FF 00 00 00 00
   5.339098 1  80              Rx   d 6 FB FF 00 00 00 00
   5.349081 1  80              Rx   d 6 FB FF 00 00 00 00
   5.359078 1  80              Rx   d 6 FB FF 00 00 00 00
   5.369009 1  80              Rx   d 6 FB FF 00 00 00 00
   5.379052 1  80              Rx   d 6 FB FF 00 00 00 00
   5.389050 1  80              Rx   d 6 FB FF 00 00 00 00
   5.399039 1  80              Rx   d 6 FB FF 00 00 00 00
   5.409021 1  80              Rx   d 6 FB FF 00 00 00 00
   5.419035 1  80              Rx   d 6 FB FF 00 00 00 00
   5.428948 1  80              Rx   d 6 FB FF 00 00 00 00
   5.438995 1  80              Rx   d 6 FB FF 00 00 00 00
   5.448988 1  80              Rx   d 6 FB FF 00 00 00 00
   5.458985 1  80              Rx   d 6 FB FF 00 00 00 00
   5.468971 1  80              Rx   d 6 FB FF 00 00 00 00
   5.478959 1  80              Rx   d 6 FB FF 00 00 00 00
   5.488940 1  80              Rx   d 6 FB FF 00 00 00 00
   5.498930 1  80              Rx   d 6 FB FF 00 00 00 00
   5.508919 1  80              Rx   d 6 FB FF 00 00 00 00
   5.518926 1  80              Rx   d 6 FB FF 00 00 00 00
   5.528900 1  80              Rx   d 6 FB FF 00 00 00 00
   5.538910 1  80              Rx   d 6 FB FF 00 00 00 00
   5.548896 1  80              Rx   d 6 FB FF 00 00 00 00
   5.558881 1  80              Rx   d 6 FB FF 00 00 00 00
   5.568866 1  80              Rx   d 6 FB FF 00 00 00 00
   5.578851 1  80              Rx   d 6 FB FF 00 00 00 00
   5.588838 1  80              Rx   d 6 FB FF 00 00 00 00
   5.598829 1  80              Rx   d 6 FB FF 00 00 00 00
   5.608828 1  80              Rx   d 6 FB FF 00 00 00 00
   5.618812 1  80              Rx   d 6 FB FF 00 00 00 00
   5.628812 1  80              Rx   d 6 FB FF 00 00 00 00
   5.638806 1  80              Rx   d 6 FB FF 00 00 00 00
   5.648781 1  80              Rx   d 6 FB FF 00 00 00 00
   5.658773 1  80              Rx   d 6 FB FF 00 00 00 00
   5.668757 1  80              Rx   d 6 FB FF 00 00 00 00
   5.678749 1  80              Rx   d 6 FB FF 00 00 00 00
   5.688771 1  80              Rx   d 6 FB FF 00 00 00 00
   5.698729 1  80              Rx   d 6 FB FF 00 00 00 00
   5.708722 1  80              Rx   d 6 FB FF 00 00 00 00
   5.718710 1  80              Rx   d 6 FB FF 00 00 00 00
   5.728697 1  80              Rx   d 6 FB FF 00 00 00 00
   5.738690 1  80              Rx   d 6 FB FF 00 00 00 00
   5.748679 1  80              Rx   d 6 FB FF 00 00 00 00
   5.758672 1  80              Rx   d 6 FB FF 00 00 00 00
   5.768658 1  80              Rx   d 6 FB FF 00 00 00 00
   5.778651 1  80              Rx   d 6 FB FF 00 00 00 00
   5.788639 1  80              Rx   d 6 FB FF 00 00 00 00
   5.798629 1  80              Rx   d 6 FB FF 00 00 00 00
   5.808623 1  80              Rx   d 6 FB FF 00 00 00 00
   5.818606 1  80              Rx   d 6 FB FF 00 00 00 00
   5.828604 1  80              Rx   d 6 FC FF 00 00 00 00
   5.838588 1  80              Rx   d 6 01 00 00 00 00 00
   5.848519 1  80              Rx   d 6 0E 00 00 00 00 00
   5.858529 1  80              Rx   d 6 20 00 00 00 00 00
   5.868565 1  80              Rx   d 6 32 00 00 00 00 00
   5.878556 1  80              Rx   d 6 45 00 00 00 00 00
   5.888537 1  80              Rx   d 6 5B 00 00 00 00 00
   5.898536 1  80              Rx   d 6 70 00 00 00 00 00
   5.908534 1  80              Rx   d 6 82 00 00 00 00 00
   5.918516 1  80              Rx   d 6 94 00 00 00 00 00
   5.928502 1  80              Rx   d 6 A4 00 00 00 00 00
   5.938492 1  80              Rx   d 6 B1 00 00 00 00 00
   5.948423 1  80              Rx   d 6 BF 00 00 00 00 00
   5.958468 1  80              Rx   d 6 D2 00 00 00 00 00
   5.968463 1  80              Rx   d 6 E7 00 00 00 00 00
   5.978456 1  80              Rx   d 6 F9 00 00 00 00 00
   5.988379 1  80              Rx   d 6 0B 01 00 00 00 00
   5.998440 1  80              Rx   d 6 1D 01 00 00 00 00
   6.008413 1  80              Rx   d 6 2C 01 00 00 00 00
   6.018352 1  80              Rx   d 6 39 01 00 00 00 00
   6.028397 1  80              Rx   d 6 49 01 00 00 00 00
   6.038399 1  80              Rx   d 6 5D 01 00 00 00 00
   6.048388 1  80              Rx   d 6 70 01 00 00 00 00
   6.058369 1  80              Rx   d 6 80 01 00 00 00 00
   6.068356 1  80              Rx   d 6 92 01 00 00 00 00
   6.078347 1  80              Rx   d 6 A3 01 00 00 00 00
   6.088356 1  80              Rx   d 6 B3 01 00 00 00 00
   6.098327 1  80              Rx   d 6 C3 01 00 00 00 00
   6.108316 1  80              Rx   d 6 D8 01 00 00 00 00
   6.118320 1  80              Rx   d 6 ED 01 00 00 00 00
   6.128298 1  80              Rx   d 6 01 02 00 00 00 00
   6.138286 1  80              Rx   d 6 16 02 00 00 00 00
   6.148293 1  80              Rx   d 6 29 02 00 00 00 00
   6.158278 1  80              Rx   d 6 3C 02 00 00 00 00
   6.168256 1  80              Rx   d 6 51 02 00 00 00 00
   6.178189 1  80              Rx   d 6 69 02 00 00 00 00
   6.188237 1  80              Rx   d 6 7E 02 00 00 00 00
   6.198220 1  80              Rx   d 6 94 02 00 00 00 00
   6.208216 1  80              Rx   d 6 A9 02 00 00 00 00
   6.218209 1  80              Rx   d 6 BC 02 00 00 00 00
   6.228208 1  80              Rx   d 6 D2 02 00 00 00 00
   6.238187 1  80              Rx   d 6 EA 02 00 00 00 00
   6.248179 1  80              Rx   d 6 00 03 00 00 00 00
   6.258104 1  80              Rx   d 6 15 03 00 00 00 00
   6.268163 1  80              Rx   d 6 2A 03 00 00 00 00
   6.278143 1  80              Rx   d 6 3D 03 00 00 00 00
   6.288075 1  80              Rx   d 6 53 03 00 00 00 00
   6.298124 1  80              Rx   d 6 6B 03 00 00 00 00
   6.308114 1  80              Rx   d 6 80 03 00 00 00 00
   6.318109 1  80              Rx   d 6 96 03 00 00 00 00
   6.328095 1  80              Rx   d 6 AB 03 00 00 00 00
   6.338085 1  80              Rx   d 6 BF 03 00 00 00 00
   6.348073 1  80              Rx   d 6 D6 03 00 00 00 00
   6.358075 1  80              Rx   d 6 EE 03 00 00 00 00
   6.368072 1  80              Rx   d 6 04 04 00 00 00 00
   6.378042 1  80              Rx   d 6 1B 04 00 00 00 00
   6.388027 1  80              Rx   d 6 2F 04 00 00 00 00
   6.397963 1  80              Rx   d 6 43 04 00 00 00 00
   6.407953 1  80              Rx   d 6 5A 04 00 00 00 00
   6.417999 1  80              Rx   d 6 71 04 00 00 00 00
   6.427988 1  80              Rx   d 6 86 04 00 00 00 00
   6.437985 1  80              Rx   d 6 9C 04 00 00 00 00
   6.447976 1  80              Rx   d 6 AF 04 00 00 00 00
   6.457972 1  80              Rx   d 6 C2 04 00 00 00 00
   6.467951 1  80              Rx   d 6 D8 04 00 00 00 00
   6.477941 1  80              Rx   d 6 EF 04 00 00 00 00
   6.487945 1  80              Rx   d 6 05 05 00 00 00 00
   6.497927 1  80              Rx   d 6 1A 05 00 00 00 00
   6.507913 1  80              Rx   d 6 2F 05 00 00 00 00
   6.517916 1  80              Rx   d 6 42 05 00 00 00 00
   6.527900 1  80              Rx   d 6 5A 05 00 00 00 00
   6.537894 1  80              Rx   d 6 71 05 00 00 00 00
   6.547880 1  80              Rx   d 6 87 05 00 00 00 00
   6.557860 1  80              Rx   d 6 9C 05 00 00 00 00
   6.567850 1  80              Rx   d 6 B0 05 00 00 00 00
   6.577841 1  80              Rx   d 6 C3 05 00 00 00 00
   6.587829 1  80              Rx   d 6 DA 05 00 00 00 00
   6.597834 1  80              Rx   d 6 F1 05 00 00 00 00
   6.607812 1  80              Rx   d 6 05 06 00 00 00 00
   6.617812 1  80              Rx   d 6 1A 06 00 00 00 00
   6.627789 1  80              Rx   d 6 2C 06 00 00 00 00
   6.637787 1  80              Rx   d 6 3C 06 00 00 00 00
   6.647787 1  80              Rx   d 6 4F 06 00 00 00 00
   6.657761 1  80              Rx   d 6 65 06 00 00 00 00
   6.667748 1  80              Rx   d 6 79 06 00 00 00 00
   6.677685 1  80              Rx   d 6 8C 06 00 00 00 00
   6.687731 1  80              Rx   d 6 A0 06 00 00 00 00
   6.697718 1  80              Rx   d 6 B1 06 00 00 00 00
   6.707725 1  80              Rx   d 6 C1 06 00 00 00 00
   6.717707 1  80              Rx   d 6 D6 06 00 00 00 00
   6.727700 1  80              Rx   d 6 EA 06 00 00 00 00
   6.737685 1  80              Rx   d 6 FD 06 00 00 00 00
   6.747686 1  80              Rx   d 6 0E 07 00 00 00 00
   6.757662 1  80              Rx   d 6 1F 07 00 00 00 00
   6.767648 1  80              Rx   d 6 2B 07 00 00 00 00
   6.777643 1  80              Rx   d 6 34 07 00 00 00 00
   6.787634 1  80              Rx   d 6 3A 07 00 00 00 00
   6.797623 1  80              Rx   d 6 40 07 00 00 00 00
   6.807616 1  80              Rx   d 6 4B 07 00 00 00 00
   6.817552 1  80              Rx   d 6 59 07 00 00 00 00
   6.827593 1  80              Rx   d 6 67 07 00 00 00 00
   6.837580 1  80              Rx   d 6 73 07 00 00 00 00
   6.847577 1  80              Rx   d 6 7C 07 00 00 00 00
   6.857565 1  80              Rx   d 6 84 07 00 00 00 00
   6.867496 1  80              Rx   d 6 8B 07 00 00 00 00
   6.877540 1  80              Rx   d 6 8F 07 00 00 00 00
   6.887530 1  80              Rx   d 6 8F 07 00 00 00 00
   6.897528 1  80              Rx   d 6 8F 07 00 00 00 00
   6.907510 1  80              Rx   d 6 8F 07 00 00 00 00
   6.917452 1  80              Rx   d 6 8F 07 00 00 00 00
   6.927497 1  80              Rx   d 6 8F 07 00 00 00 00
   6.937477 1  80              Rx   d 6 8F 07 00 00 00 00
   6.947478 1  80              Rx   d 6 8F 07 00 00 00 00
   6.957403 1  80              Rx   d 6 8F 07 00 00 00 00
   6.967391 1  80              Rx   d 6 8F 07 00 00 00 00
   6.977436 1  80              Rx   d 6 8F 07 00 00 00 00
   6.987432 1  80              Rx   d 6 8F 07 00 00 00 00
   6.997418 1  80              Rx   d 6 8F 07 00 00 00 00
   7.007414 1  80              Rx   d 6 8F 07 00 00 00 00
   7.017396 1  80              Rx   d 6 8F 07 00 00 00 00
   7.027394 1  80              Rx   d 6 8F 07 00 00 00 00
   7.037389 1  80              Rx   d 6 8F 07 00 00 00 00
   7.047365 1  80              Rx   d 6 8F 07 00 00 00 00
   7.057381 1  80              Rx   d 6 8F 07 00 00 00 00
   7.067344 1  80              Rx   d 6 8F 07 00 00 00 00
   7.077342 1  80              Rx   d 6 8F 07 00 00 00 00
   7.087335 1  80              Rx   d 6 8F 07 00 00 00 00
   7.097313 1  80              Rx   d 6 8F 07 00 00 00 00
   7.107308 1  80              Rx   d 6 8F 07 00 00 00 00
   7.117247 1  80              Rx   d 6 8F 07 00 00 00 00
   7.127296 1  80              Rx   d 6 8F 07 00 00 00 00
   7.137275 1  80              Rx   d 6 8F 07 00 00 00 00
   7.147210 1  80              Rx   d 6 8F 07 00 00 00 00
   7.157261 1  80              Rx   d 6 8F 07 00 00 00 00
   7.167257 1  80              Rx   d 6 8F 07 00 00 00 00
   7.177197 1  80              Rx   d 6 8F 07 00 00 00 00
   7.187229 1  80              Rx   d 6 8F 07 00 00 00 00
   7.197173 1  80              Rx   d 6 8F 07 00 00 00 00
   7.207208 1  80              Rx   d 6 8F 07 00 00 00 00
   7.217203 1  80              Rx   d 6 8F 07 00 00 00 00
   7.227190 1  80              Rx   d 6 8F 07 00 00 00 00
   7.237182 1  80              Rx   d 6 8F 07 00 00 00 00
   7.247164 1  80              Rx   d 6 8F 07 00 00 00 00
   7.257156 1  80              Rx   d 6 8F 07 00 00 00 00
   7.267148 1  80              Rx   d 6 8F 07 00 00 00 00
   7.277143 1  80              Rx   d 6 8F 07 00 00 00 00
   7.287138 1  80              Rx   d 6 8F 07 00 00 00 00
   7.297121 1  80              Rx   d 6 8F 07 00 00 00 00
   7.307107 1  80              Rx   d 6 8F 07 00 00 00 00
   7.317095 1  80              Rx   d 6 8F 07 00 00 00 00
   7.327091 1  80              Rx   d 6 8F 07 00 00 00 00
   7.337079 1  80              Rx   d 6 8F 07 00 00 00 00
   7.347065 1  80              Rx   d 6 8F 07 00 00 00 00
   7.357071 1  80              Rx   d 6 8F 07 00 00 00 00
   7.366990 1  80              Rx   d 6 8F 07 00 00 00 00
   7.377036 1  80              Rx   d 6 8F 07 00 00 00 00
   7.387031 1  80              Rx   d 6 8F 07 00 00 00 00
   7.397019 1  80              Rx   d 6 8F 07 00 00 00 00
   7.407009 1  80              Rx   d 6 8F 07 00 00 00 00
   7.417016 1  80              Rx   d 6 8F 07 00 00 00 00
   7.426991 1  80              Rx   d 6 8F 07 00 00 00 00
   7.436981 1  80              Rx   d 6 8F 07 00 00 00 00
   7.446971 1  80              Rx   d 6 8F 07 00 00 00 00
   7.456967 1  80              Rx   d 6 8F 07 00 00 00 00
   7.466897 1  80              Rx   d 6 8F 07 00 00 00 00
   7.476885 1  80              Rx   d 6 8F 07 00 00 00 00
   7.486928 1  80              Rx   d 6 8F 07 00 00 00 00
   7.496925 1  80              Rx   d 6 8F 07 00 00 00 00
   7.506915 1  80              Rx   d 6 8F 07 00 00 00 00
   7.516913 1  80              Rx   d 6 8F 07 00 00 00 00
   7.526890 1  80              Rx   d 6 8F 07 00 00 00 00
   7.536886 1  80              Rx   d 6 8F 07 00 00 00 00
   7.546874 1  80              Rx   d 6 8F 07 00 00 00 00
   7.556854 1  80              Rx   d 6 8F 07 00 00 00 00
   7.566850 1  80              Rx   d 6 8F 07 00 00 00 00
   7.576837 1  80              Rx   d 6 8F 07 00 00 00 00
   7.586827 1  80              Rx   d 6 8F 07 00 00 00 00
   7.596813 1  80              Rx   d 6 8F 07 00 00 00 00
   7.606815 1  80              Rx   d 6 8F 07 00 00 00 00
   7.616798 1  80              Rx   d 6 8F 07 00 00 00 00
   7.626806 1  80              Rx   d 6 8F 07 00 00 00 00
   7.636779 1  80              Rx   d 6 8F 07 00 00 00 00
   7.646768 1  80              Rx   d 6 8F 07 00 00 00 00
   7.656759 1  80              Rx   d 6 8F 07 00 00 00 00
   7.666744 1  80              Rx   d 6 8F 07 00 00 00 00
   7.676742 1  80              Rx   d 6 8F 07 00 00 00 00
   7.686670 1  80              Rx   d 6 8F 07 00 00 00 00
   7.696715 1  80              Rx   d 6 8F 07 00 00 00 00
   7.706714 1  80              Rx   d 6 8F 07 00 00 00 00
   7.716702 1  80              Rx   d 6 8F 07 00 00 00 00
   7.726681 1  80              Rx   d 6 8F 07 00 00 00 00
   7.736680 1  80              Rx   d 6 8F 07 00 00 00 00
   7.746665 1  80              Rx   d 6 8F 07 00 00 00 00
   7.756665 1  80              Rx   d 6 8F 07 00 00 00 00
   7.766646 1  80              Rx   d 6 8F 07 00 00 00 00
   7.776632 1  80              Rx   d 6 8F 07 00 00 00 00
   7.786624 1  80              Rx   d 6 8F 07 00 00 00 00
   7.796615 1  80              Rx   d 6 8F 07 00 00 00 00
   7.806551 1  80              Rx   d 6 8F 07 00 00 00 00
   7.816612 1  80              Rx   d 6 8F 07 00 00 00 00
   7.826601 1  80              Rx   d 6 8F 07 00 00 00 00
   7.836584 1  80              Rx   d 6 8F 07 00 00 00 00
   7.846569 1  80              Rx   d 6 8F 07 00 00 00 00
   7.856507 1  80              Rx   d 6 8F 07 00 00 00 00
   7.866553 1  80              Rx   d 6 8F 07 00 00 00 00
   7.876537 1  80              Rx   d 6 8F 07 00 00 00 00
   7.886524 1  80              Rx   d 6 8F 07 00 00 00 00
   7.896464 1  80              Rx   d 6 8F 07 00 00 00 00
   7.906511 1  80              Rx   d 6 8F 07 00 00 00 00
   7.916437 1  80              Rx   d 6 8F 07 00 00 00 00
   7.926482 1  80              Rx   d 6 8F 07 00 00 00 00
   7.936484 1  80              Rx   d 6 8F 07 00 00 00 00
   7.946417 1  80              Rx   d 6 8F 07 00 00 00 00
   7.956453 1  80              Rx   d 6 8F 07 00 00 00 00
   7.966445 1  80              Rx   d 6 8F 07 00 00 00 00
   7.976432 1  80              Rx   d 6 8F 07 00 00 00 00
   7.986369 1  80              Rx   d 6 8F 07 00 00 00 00
   7.996419 1  80              Rx   d 6 8F 07 00 00 00 00
   8.006406 1  80              Rx   d 6 8F 07 00 00 00 00
   8.016394 1  80              Rx   d 6 8F 07 00 00 00 00
   8.026388 1  80              Rx   d 6 8F 07 00 00 00 00
   8.036385 1  80              Rx   d 6 8F 07 00 00 00 00
   8.046364 1  80              Rx   d 6 8F 07 00 00 00 00
   8.056357 1  80              Rx   d 6 8F 07 00 00 00 00
   8.066342 1  80              Rx   d 6 8F 07 00 00 00 00
   8.076333 1  80              Rx   d 6 8F 07 00 00 00 00
   8.086322 1  80              Rx   d 6 8F 07 00 00 00 00
   8.096318 1  80              Rx   d 6 8F 07 00 00 00 00
   8.106304 1  80              Rx   d 6 8F 07 00 00 00 00
   8.116296 1  80              Rx   d 6 8F 07 00 00 00 00
   8.126292 1  80              Rx   d 6 8F 07 00 00 00 00
   8.136281 1  80              Rx   d 6 8F 07 00 00 00 00
   8.146276 1  80              Rx   d 6 8F 07 00 00 00 00
   8.156263 1  80              Rx   d 6 8F 07 00 00 00 00
   8.166203 1  80              Rx   d 6 8F 07 00 00 00 00
   8.176238 1  80              Rx   d 6 8F 07 00 00 00 00
   8.186227 1  80              Rx   d 6 8F 07 00 00 00 00
   8.196219 1  80              Rx   d 6 8F 07 00 00 00 00
   8.206203 1  80              Rx   d 6 8F 07 00 00 00 00
   8.216191 1  80              Rx   d 6 8F 07 00 00 00 00
   8.226125 1  80              Rx   d 6 8F 07 00 00 00 00
   8.236115 1  80              Rx   d 6 8F 07 00 00 00 00
   8.246170 1  80              Rx   d 6 8F 07 00 00 00 00
   8.256173 1  80              Rx   d 6 8F 07 00 00 00 00
   8.266140 1  80              Rx   d 6 8F 07 00 00 00 00
   8.276135 1  80              Rx   d 6 8F 07 00 00 00 00
   8.286122 1  80              Rx   d 6 8F 07 00 00 00 00
   8.296070 1  80              Rx   d 6 8F 07 00 00 00 00
   8.306101 1  80              Rx   d 6 8F 07 00 00 00 00
   8.316094 1  80              Rx   d 6 8F 07 00 00 00 00
   8.326028 1  80              Rx   d 6 8F 07 00 00 00 00
   8.336083 1  80              Rx   d 6 8F 07 00 00 00 00
   8.346063 1  80              Rx   d 6 8F 07 00 00 00 00
   8.356051 1  80              Rx   d 6 8F 07 00 00 00 00
   8.366046 1  80              Rx   d 6 8F 07 00 00 00 00
   8.376043 1  80              Rx   d 6 8F 07 00 00 00 00
   8.386028 1  80              Rx   d 6 8F 07 00 00 00 00
   8.396012 1  80              Rx   d 6 8F 07 00 00 00 00
   8.406013 1  80              Rx   d 6 8F 07 00 00 00 00
   8.415999 1  80              Rx   d 6 8F 07 00 00 00 00
   8.425987 1  80              Rx   d 6 8F 07 00 00 00 00
   8.435985 1  80              Rx   d 6 8F 07 00 00 00 00
   8.445963 1  80              Rx   d 6 8F 07 00 00 00 00
   8.455968 1  80              Rx   d 6 8F 07 00 00 00 00
